(000.000000) can1 18F11031#0000FFFFFFFFFFFF
(001.000041) can1 18F11031#0000FFFFFFFFFFFF
(002.000040) can1 18F11031#0000FFFFFFFFFFFF
(003.000079) can1 18F11031#0000FFFFFFFFFFFF
(004.000081) can1 18F11031#0000FFFFFFFFFFFF
(005.000148) can1 18F11031#0000FFFFFFFFFFFF
(006.000122) can1 18F11031#0000FFFFFFFFFFFF
(007.000158) can1 18F11031#0000FFFFFFFFFFFF
(008.000195) can1 18F11031#0000FFFFFFFFFFFF
(009.000197) can1 18F11031#0000FFFFFFFFFFFF
(010.000228) can1 18F11031#0000FFFFFFFFFFFF
(011.000237) can1 18F11031#0000FFFFFFFFFFFF
(011.599240) can1 18F00131#FFFFFF3F00FFFFFF
(011.599801) can1 18FEF131#F7FFFFC3CCFFFFF0
(011.600433) can1 18FEF031#FFFFFFFFFFFCCCFF
(011.600963) can1 18FEFC31#FF32FFFFFFFF00FF
(011.601563) can1 18FEAE31#FFFF0401FFFFFFFF
(011.602162) can1 18FEF731#FFFFFFFFEF00FFFF
(011.602762) can1 18FF4831#0000FFFF00000000
(011.603362) can1 18FD8331#F8FFFFFFFFFFFFFF
(011.603962) can1 18FEF831#FFFFFFFFFFFFFFFF
(011.604562) can1 18FEF231#FFFFFFFFFFFFFFFF
(011.605153) can1 18FEFA31#FF0802FFFFFFFFFF
(011.605722) can1 18FEC131#5FF21005FFFFFFFF
(011.606322) can1 0CF00331#FFFFFFFFFFFFFFFF
(011.649202) can1 0CF00331#FFFFFFFFFFFFFFFF
(011.653083) can1 18EEFF03#6400400000030310
(011.672843) can1 18FECA03#00FF00000000FFFF
(011.699227) can1 18F00131#FFFFFF3F00FFFFFF
(011.699828) can1 18FEF131#F7FFFFC3CCFFFFF0
(011.700389) can1 18FEF031#FFFFFFFFFFFCCCFF
(011.700994) can1 18FF4831#0000FFFF00000000
(011.701592) can1 18FEF231#FFFFFFFFFFFFFFFF
(011.702193) can1 0CF00331#FFFFFFFFFFFFFFFF
(011.742843) can1 18FE4A03#034F4FFFFFF3FFFF
(011.749203) can1 0CF00331#FFFFFFFFFFFFFFFF
(011.761555) can1 18F0010B#CFFFF0FFFFDCFFFF
(011.771563) can1 18FEBF0B#00007D7D7D7DFFFF
(011.775473) can1 18EAFFFE#00EE00
(011.781592) can1 18FECA0B#04FF00000000FFFF
(011.799232) can1 18F00131#FFFFFF3F00FFFFFF
(011.799801) can1 18FEF131#F7FFFFC3CCFFFFF0
(011.800398) can1 18FEF031#FFFFFFFFFFFCCCFF
(011.801002) can1 18FF4831#0000FFFF00000000
(011.801603) can1 18FEF231#FFFFFFFFFFFFFFFF
(011.802193) can1 0CF00331#FFFFFFFFFFFFFFFF
(011.822872) can1 18EEFF03#6400400000030310
(011.840437) can1 18EAFF00#EBFE00
(011.842907) can1 18FE4A03#035F4FFFFFF3FFFF
(011.849202) can1 0CF00331#FFFFFFFFFFFFFFFF
(011.852511) can1 18EEFF00#F4B84E0100000000
(011.853073) can1 18EEFF29#F4B84E01000C0000
(011.861682) can1 18F0010B#CFFFF0FFFFDCFFFF
(011.871828) can1 18FEBF0B#00007D7D7D7DFFFF
(011.877482) can1 18FEDF00#7DA0287D7DFFFFFC
(011.879632) can1 1CECFF31#20170004FFEBFE00
(011.888282) can1 0CF00400#0E7D7D0000FE007D
(011.897471) can1 18FEDF00#7DA0287D7DFFFFFC
(011.899231) can1 18F00131#FFFFFF3F00FFFFFF
(011.899801) can1 18FEF131#F7FFFFC3CCFFFFF0
(011.900398) can1 18FEF031#FFFFFFFFFFFCCCFF
(011.901002) can1 18FF4831#0000FFFF00000000
(011.901601) can1 18FEF231#FFFFFFFFFFFFFFFF
(011.902192) can1 0CF00331#FFFFFFFFFFFFFFFF
(011.902761) can1 0CF00300#C10000FFFF0F007D
(011.908349) can1 0CF00400#0E7D7D0000FE007D
(011.911882) can1 1CECFF0B#201B0004FFEBFE00
(011.917482) can1 18FEDF00#7DA0287D7DFFFFF0
(011.922108) can1 0CF00300#C10000FFFF0F727D
(011.922924) can1 0C000003#E7FFFA89FFF5FFFF
(011.923562) can1 0CF00203#C00000FFF7000003
(011.924162) can1 0CF00C03#00FB0000FFFFFFFF
(011.928394) can1 0CF00400#0E7D7D000000007D
(011.929481) can1 1CEBFF31#0150414343522A43
(011.932872) can1 0C000003#E7FFFA8AFFF4FFFF
(011.933483) can1 0CF00203#C00000FFF7000003
(011.934083) can1 18ECFF03#20160004FFEBFE00
(011.937602) can1 18FEDF00#7DA0287D7DFFFFF0
(011.942082) can1 0CF00300#C10000FFFF0F727D
(011.942951) can1 0C000003#E7FFFA8AFFF4FFFF
(011.943562) can1 0CF00203#C00000FFF7000003
(011.944193) can1 0CF00C03#00FB0000FFFFFFFF
(011.945111) can1 18F00503#7D00007D4E204E43
(011.945721) can1 18FE4A03#035F4FFFFFF3FFFF
(011.946122) can1 18EAFF03#E3FE00
(011.946961) can1 18FCE700#7D7D7D7D7D7D7DFF
(011.947551) can1 1CECFF00#20220005FFE3FE00
(011.948121) can1 18F03300#FFFFFFFFFFFFFFFF
(011.948712) can1 0CF00400#0E7D7D000003007D
(011.949282) can1 0CF00331#FFFFFFFFFFFFFFFF
(011.949881) can1 18FECA31#00FF00000000FFFF
(011.952873) can1 0C000003#E7FFFA8BFFF4FFFF
(011.953483) can1 0CF00203#C02000FFF7000003
(011.957523) can1 18FEDF00#7DA0287D7DFFFFF0
(011.961922) can1 18F0010B#CFFFF0FFFFDCFFFF
(011.962481) can1 0CF00300#C10000FFFF0F727D
(011.963072) can1 0C000003#E7FFFA8BFFF4FFFF
(011.963682) can1 0CF00203#C02000FFF7000003
(011.964351) can1 0CF00C03#00FB0000FFFFFFFF
(011.967162) can1 18FEEE00#37FFFFFFFFFFFFFF
(011.968402) can1 0CF00400#0E7D7D000003007D
(011.971962) can1 18FEBF0B#00007D7D7D7DFFFF
(011.972843) can1 0C000003#E7FFFA8BFFF3FFFF
(011.973482) can1 0CF00203#C02700FFF7000003
(011.977589) can1 18FEDF00#7DA0287D7DFFFFF0
(011.979593) can1 1CEBFF31#02454355332D4E41
(011.982163) can1 0CF00300#C10000FFFF0F727D
(011.982922) can1 0C000003#E7FFFA8BFFF3FFFF
(011.983553) can1 0CF00203#C02700FFF7000003
(011.984161) can1 0CF00C03#00FB0000FFFFFFFF
(011.985042) can1 18EBFF03#01414C4C534E2A32
(011.988403) can1 0CF00400#0E7D7D000003007D
(011.992082) can1 0CF00A00#00000000FFFFFFFF
(011.992841) can1 0C000003#E7FFFA8CFFF2FFFF
(011.993482) can1 0CF00203#C02800FFF7000003
(011.997521) can1 18F03300#FFFFFFFFFFFFFFFF
(011.998082) can1 18FEDF00#7DA0287D7DFFFFF0
(011.999232) can1 18F00131#FFFFFF3F00FFFFFF
(011.999801) can1 1CEBFF00#0100007D00007D00
(012.000393) can1 18FEF131#F7FFFFC3CCFFFFF0
(012.000962) can1 18FEF031#FFFFFFFFFFFCCCFF
(012.001562) can1 18F11031#0000FFFFFFFFFFFF
(012.002162) can1 18FF4831#0000FFFF00000000
(012.002752) can1 0CF00300#C10000FFFF0F727D
(012.003322) can1 0C000003#E7FFFA8CFFF2FFFF
(012.003882) can1 18FEF231#FFFFFFFFFFFFFFFF
(012.004471) can1 0CF00203#C02800FFF7000003
(012.005041) can1 0CF00331#FFFFFFFFFFFFFFFF
(012.005628) can1 0CF00C03#00FB0000FFFFFFFF
(012.008434) can1 0CF00400#0E7D7D000003007D
(012.011961) can1 1CEBFF0B#01424E4457532A45
(012.012601) can1 0C010305#FFFFFFFFFFF3FFFF
(012.013162) can1 0C000003#E7FFFA8DFFF1FFFF
(012.013802) can1 0CF00203#C02900FFF7000003
(012.017552) can1 18FEDF00#7DA0287D7DFFFFF0
(012.022123) can1 0CF00300#C10000FFFF0F727D
(012.022922) can1 0C000003#E7FFFA8DFFF1FFFF
(012.023562) can1 0CF00203#C02900FFF7000003
(012.024162) can1 0CF00C03#00FB0000FFFFFFFF
(012.028353) can1 0CF00400#0E7D7D000003007D
(012.029521) can1 1CEBFF31#034D5558322A202A
(012.032871) can1 0C000003#E7FFFA8EFFF1FFFF
(012.033482) can1 0CF00203#C02900FFF7000003
(012.034081) can1 18EBFF03#023130302D323230
(012.037602) can1 18FEDF00#7DA0287D7DFFFFF0
(012.042083) can1 0CF00300#C10000FFFF0F727D
(012.042682) can1 0CF00A00#00000000FFFFFFFF
(012.043273) can1 0C000003#E7FFFA8EFFF1FFFF
(012.043841) can1 18F00E00#FFFFFFFFFFFFFFFF
(012.044431) can1 0CF00203#C02900FFF7000003
(012.045042) can1 0CF00C03#00FB0000FFFFFFFF
(012.045642) can1 18F00503#7D00007D4E204E43
(012.046271) can1 18FE4A03#035F4FFFFFF3FFFF
(012.047153) can1 18F03300#FFFFFFFFFFFFFFFF
(012.048402) can1 0CF00400#0E7D7D000003007D
(012.049233) can1 0CF00331#FFFFFFFFFFFFFFFF
(012.052642) can1 1CEBFF00#02007D00007D0000
(012.053234) can1 0C000003#E7FFFA8FFFF0FFFF
(012.053842) can1 0CF00203#C02900FFF7000003
(012.057522) can1 18FEDF00#7DA0287D7DFFFFF0
(012.058122) can1 18F00F00#FFFFFFFFFFFFFFFF
(012.062042) can1 18F0010B#CFFFF0FFFFDCFFFF
(012.062642) can1 0C010305#FFFFFFFFFFF3FFFF
(012.063201) can1 0C000003#E7FFFA8FFFF0FFFF
(012.063792) can1 0CF00300#C10000FFFF0F727D
(012.064361) can1 0CF00203#C02900FFF7000003
(012.065122) can1 0CF00C03#00FB0000FFFFFFFF
(012.068402) can1 0CF00400#0E7D7D0000030F7D
(012.072082) can1 18FEBF0B#00007D7D7D7DFFFF
(012.072872) can1 0C000003#E7FFFA90FFF7FFFF
(012.073482) can1 0CF00203#C02900FFF7000003
(012.077562) can1 18FEDF00#7DA0287D7DFFFFF0
(012.079631) can1 1CEBFF31#04202AFFFFFFFFFF
(012.082152) can1 18FCDC00#9FFFFFFF9C681C00
(012.082721) can1 0CF00300#C10000FFFF0F727D
(012.083282) can1 0C000003#E7FFFA90FFF7FFFF
(012.083922) can1 0CF00203#C02900FFF7000003
(012.084522) can1 0CF00C03#00FB0000FFFFFFFF
(012.085122) can1 18EBFF03#0330205244532A2A
(012.088402) can1 0CF00400#0E7D7D0000030F7D
(012.092082) can1 0CF00A00#00000000FFFFFFFF
(012.092682) can1 18F00E00#FFFFFFFFFFFFFFFF
(012.093242) can1 0C000003#E7FFFA91FFF6FFFF
(012.093882) can1 0CF00203#C02900FFF7000003
(012.097601) can1 18F03300#FFFFFFFFFFFFFFFF
(012.098161) can1 18FEDF00#7DA0287D7DFFFFF0
(012.099232) can1 18F00131#FFFFFF3F00FFFFFF
(012.099801) can1 18FEF131#F7FFFFC3CCFFFFF0
(012.100399) can1 18FEF031#FFFFFFFFFFFCCCFF
(012.101002) can1 18FF4831#0000FFFF00000000
(012.101601) can1 18FEF231#FFFFFFFFFFFFFFFF
(012.102192) can1 0CF00331#FFFFFFFFFFFFFFFF
(012.102753) can1 18FEE000#73490300BCE03300
(012.103321) can1 0C000003#E7FFFA91FFF6FFFF
(012.103881) can1 0CF00300#C10000FFFF0F657D
(012.104472) can1 0CF00203#C02900FFF7000003
(012.105153) can1 0CF00C03#00FB0000FFFFFFFF
(012.107201) can1 18F00F00#FFFFFFFFFFFFFFFF
(012.108442) can1 0CF00400#0E7D7D0000030F7D
(012.109032) can1 1CEBFF00#037DFFFFFFFF5504
(012.112112) can1 1CEBFF0B#024336302D737461
(012.112680) can1 0C010305#FFFFFFFFFFF3FFFF
(012.113273) can1 0C000003#E7FFFA92FFF5FFFF
(012.113883) can1 0CF00203#C02900FFF7000003
(012.117562) can1 18FEDF00#7DA0287D7DFFFFF0
(012.122122) can1 0CF00300#C10000FFFF0F6A7D
(012.122922) can1 0C000003#E7FFFA92FFF5FFFF
(012.123562) can1 0CF00203#C02900FFF7000003
(012.124163) can1 0CF00C03#00FB0000FFFFFFFF
(012.128362) can1 0CF00400#0E7D7D0000030F7D
(012.132872) can1 0C000003#E7FFFA93FFF5FFFF
(012.133512) can1 0CF00203#C02900FFF7000003
(012.134121) can1 18EBFF03#042AFFFFFFFFFFFF
(012.137632) can1 18FEDF00#7DA0287D7DFFFFF0
(012.142122) can1 0CF00300#C10000FFFF0F6A7D
(012.142713) can1 0CF00A00#00000000FFFFFFFF
(012.143282) can1 0C000003#E7FFFA93FFF5FFFF
(012.143881) can1 18F00E00#FFFFFFFFFFFFFFFF
(012.144441) can1 0CF00203#C02900FFF7000003
(012.145071) can1 0CF00C03#00FB0000FFFFFFFF
(012.145672) can1 18F00503#7D00007D4E204E43
(012.146281) can1 18FE4A03#035F4FFFFFF3FFFF
(012.147161) can1 18F03300#FFFFFFFFFFFFFFFF
(012.148431) can1 0CF00400#0E7D7D0000030F7D
(012.149241) can1 0CF00331#FFFFFFFFFFFFFFFF
(012.152873) can1 0C000003#E7FFFA94FFF4FFFF
(012.153483) can1 0CF00203#C02900FFF7000003
(012.157522) can1 18FEDF00#7DA0287D7DFFFFF0
(012.158121) can1 18F00F00#FFFFFFFFFFFFFFFF
(012.162152) can1 0CF00300#C10000FFFF0F6A7D
(012.162720) can1 0C010305#FFFFFFFFFFF3FFFF
(012.163283) can1 0C000003#E7FFFA94FFF4FFFF
(012.163872) can1 18F0010B#CFFFF0FFFFDCFFFF
(012.164442) can1 0CF00203#C02900FFF7000003
(012.164992) can1 1CEBFF00#04385E1446FF7D7D
(012.165561) can1 0CF00C03#00FB0000FFFFFFFF
(012.168427) can1 0CF00400#0E7D7D0000030F7D
(012.172082) can1 10FDA300#FFFFB1FFFFFFFFFF
(012.172682) can1 18FEBF0B#00007D7D7D7DFFFF
(012.173242) can1 0C000003#E7FFFA94FFF3FFFF
(012.173881) can1 0CF00203#C02900FFF7000003
(012.177631) can1 18FEDF00#7DA0287D7DFFFFF0
(012.182151) can1 18FCDC00#9FFFFFFF9C682800
(012.182719) can1 0CF00300#C10000FFFF0F6A7D
(012.183282) can1 0C000003#E7FFFA94FFF3FFFF
(012.183921) can1 0CF00203#C02900FFF7000003
(012.184521) can1 0CF00C03#00FB0000FFFFFFFF
(012.188402) can1 0CF00400#0E7D7D0000030F7D
(012.192082) can1 0CF00A00#00000000FFFFFFFF
(012.192679) can1 18FD9400#0000FFFFFFFFFFFF
(012.193243) can1 0C000003#E7FFFA95FFF2FFFF
(012.193841) can1 18F00E00#FFFFFFFFFFFFFFFF
(012.194403) can1 0CF00203#C02900FFF7000003
(012.197632) can1 18F03300#FFFFFFFFFFFFFFFF
(012.198161) can1 18FEDF00#7DA0287D7DFFFFF0
(012.199240) can1 18F00131#FFFFFF3F00FFFFFF
(012.199801) can1 18FEF131#F7FFFFC3CCFFFFF0
(012.200399) can1 18FEF031#FFFFFFFFFFFCCCFF
(012.201002) can1 18FF4831#0000FFFF00000000
(012.201601) can1 18FEF231#FFFFFFFFFFFFFFFF
(012.202201) can1 0CF00331#FFFFFFFFFFFFFFFF
(012.202762) can1 18FEE000#73490300BCE03300
(012.203321) can1 0C000003#E7FFFA95FFF2FFFF
(012.203911) can1 0CF00300#C10000FFFF0F6A7D
(012.204472) can1 0CF00203#C02900FFF7000003
(012.205081) can1 0CF00C03#00FB0000FFFFFFFF
(012.207232) can1 18F00F00#FFFFFFFFFFFFFFFF
(012.208471) can1 0CF00400#0E7D7D0000030F7D
(012.212282) can1 1CEBFF0B#032A4E3136313330
(012.212871) can1 0C010305#FFFFFFFFFFF3FFFF
(012.213442) can1 0C000003#E7FFFA96FFF1FFFF
(012.214072) can1 0CF00203#C00800FFF7000003
(012.217561) can1 18FEDF00#7DA0287D7DFFFFF0
(012.218161) can1 10FCFD00#FFFFFFFF5951FFFF
(012.219560) can1 1CEBFF00#05FFFF8600F702FF
(012.222122) can1 0CF00300#C10000FFFF0F6A7D
(012.222922) can1 0C000003#E7FFFA96FFF1FFFF
(012.223562) can1 0CF00203#C00800FFF7000003
(012.224162) can1 0CF00C03#00FB0000FFFFFFFF
(012.227123) can1 18FD7C00#F8830100C31F03FF
(012.228433) can1 0CF00400#0E7D7D0000030F7D
(012.232843) can1 0C000003#E4FFFA97FFF1FFFF
(012.233481) can1 0CF00203#C00000FFF7000003
(012.237601) can1 18FEDF00#7DA0287D7DFFFFF0
(012.242122) can1 0CF00300#C10000FFFF0F6A7D
(012.242722) can1 0CF00A00#00000000FFFFFFFF
(012.243281) can1 0CF00203#C00000FFF7000003
(012.243881) can1 18FEF000#FFFFFFE015FFFFFF
(012.244441) can1 0CF00C03#00FB0000FFFFFFFF
(012.245041) can1 18F00E00#FFFFFFFFFFFFFFFF
(012.245601) can1 18F00503#7D00007D4E204E43
(012.246249) can1 18FE4A03#035F4FFFFFF3FFFF
(012.247173) can1 18F03300#FFFFFFFFFFFFFFFF
(012.248421) can1 0CF00400#0E7D7D0000000F7D
(012.249222) can1 0CF00331#FFFFFFFFFFFFFFFF
(012.252875) can1 0CF00203#C00000FFF7000003
(012.257513) can1 18FEDF00#7DA0287D7DFFFFF0
(012.258111) can1 18F00F00#FFFFFFFFFFFFFFFF
(012.262162) can1 0CF00300#C10000FFFF0F6A7D
(012.262722) can1 0C010305#FFFFFFFFFFF3FFFF
(012.263313) can1 0CF00203#C00000FFF7000003
(012.263881) can1 18F0010B#CFFFF0FFFFDCFFFF
(012.264442) can1 0CF00C03#00FB0000FFFFFFFF
(012.265003) can1 18FEF100#FF1C00FCFF6800CF
(012.268402) can1 0CF00400#0E7D7D0000000F7D
(012.272111) can1 10FDA300#FFFF9CFFFFFFFFFF
(012.272682) can1 18FEBF0B#00007D7D7D7DFFFF
(012.273241) can1 0CF00203#C00000FFF7000003
(012.277522) can1 18FEDF00#7DA0287D7DFFFFF0
(012.282122) can1 18FCDC00#9FFFFFFF9C681C00
(012.282713) can1 0CF00300#C10000FFFF0F6A7D
(012.283282) can1 0CF00203#C00000FFF7000003
(012.283873) can1 1CFE9200#FF4C7DFFFFFF0000
(012.284441) can1 0CF00C03#00FB0000FFFFFFFF
(012.288393) can1 0CF00400#0E7D7D0000000F7D
(012.292082) can1 0CF00A00#00000000FFFFFFFF
(012.292682) can1 18FD9400#0000FFFFFFFFFFFF
(012.293243) can1 0CF00203#C00000FFF7000003
(012.293841) can1 18F00E00#FFFFFFFFFFFFFFFF
(012.297521) can1 18F03300#FFFFFFFFFFFFFFFF
(012.298081) can1 18FEDF00#7DA0287D7DFFFFF0
(012.299240) can1 18F00131#FFFFFF3F00FFFFFF
(012.299799) can1 18FEF131#F7FFFFC3CCFFFFF0
(012.300399) can1 18FEF031#FFFFFFFFFFFCCCFF
(012.301002) can1 18FF4831#0000FFFF00000000
(012.301601) can1 18FEF231#FFFFFFFFFFFFFFFF
(012.302198) can1 0CF00331#FFFFFFFFFFFFFFFF
(012.302761) can1 18FEE000#73490300BCE03300
(012.303321) can1 0CF00203#C00000FFF7000003
(012.303911) can1 0CF00300#C10000FFFF0F6A7D
(012.304482) can1 0CF00C03#00FB0000FFFFFFFF
(012.307159) can1 18FEF200#0000FF7FAA08E1FF
(012.307751) can1 18F00F00#FFFFFFFFFFFFFFFF
(012.308442) can1 0CF00400#0E7D7D0000000F7D
(012.312442) can1 1CEBFF0B#04303933392A2AFF
(012.313002) can1 0C010305#FFFFFFFFFFF3FFFF
(012.313592) can1 0CF00203#C00000FFF7000003
(012.317553) can1 18FEDF00#7DA0287D7DFFFFF0
(012.318123) can1 10FCFD00#FFFFFFFF5951FFFF
(012.322152) can1 0CF00300#C10000FFFF0F6A7D
(012.322922) can1 0CF00203#C00000FFF7000003
(012.323551) can1 0CF00C03#00FB0000FFFFFFFF
(012.327153) can1 18F00100#FFFFFFFFFFFFFFFF
(012.328392) can1 0CF00400#0E7D7D0000000F7D
(012.332843) can1 0CF00203#C00000FFF7000003
(012.337561) can1 18FEDF00#7DA0287D7DFFFFF0
(012.342152) can1 0CF00300#C10000FFFF0F6A7D
(012.342722) can1 0CF00A00#00000000FFFFFFFF
(012.343313) can1 0CF00203#C00000FFF7000003
(012.343881) can1 18FEF000#FFFFFFE015FFFFFF
(012.344481) can1 0CF00C03#00FB0000FFFFFFFF
(012.345072) can1 18F00E00#FFFFFFFFFFFFFFFF
(012.345631) can1 18F00503#7D00007D4E204E43
(012.346241) can1 18FE4A03#035F4FFFFFF3FFFF
(012.347158) can1 18F03300#FFFFFFFFFFFFFFFF
(012.348441) can1 0CF00400#0E7D7D0000000F7D
(012.349241) can1 0CF00331#FFFFFFFFFFFFFFFF
(012.352152) can1 18FCF200#E1FFFFFFFFFFFFFF
(012.352872) can1 0CF00203#C00000FFF7000003
(012.357521) can1 18FEDF00#7DA0287D7DFFFFF0
(012.358121) can1 18F00F00#FFFFFFFFFFFFFFFF
(012.362161) can1 0CF00300#C10000FFFF0F6A7D
(012.362753) can1 0C010305#FFFFFFFFFFF3FFFF
(012.363321) can1 0CF00203#C00000FFF7000003
(012.363881) can1 18F0010B#CFFFF0FFFFDCFFFF
(012.364472) can1 0CF00C03#00FB0000FFFFFFFF
(012.365041) can1 18FEF100#FF0800FCFF6800CF
(012.368401) can1 0CF00400#0E7D7D0000000F7D
(012.372121) can1 10FDA300#FFFF91FFFFFFFFFF
(012.372707) can1 18FEBF0B#00007D7D7D7DFFFF
(012.373281) can1 0CF00203#C00000FFF7000003
(012.373842) can1 18F00029#F07D7DF329FFFF7D
(012.377561) can1 18FEDF00#7DA0287D7DFFFFF0
(012.382161) can1 18FCDC00#9FFFFFFF9C680800
(012.382752) can1 0CF00300#C10000FFFF0F6A7D
(012.383321) can1 0CF00203#C00000FFF7000003
(012.383881) can1 1CFE9200#FF487DFFFFFF0000
(012.384481) can1 0CF00C03#00FB0000FFFFFFFF
(012.388401) can1 0CF00400#0E7D7D0000000F7D
(012.392121) can1 0CF00A00#00000000FFFFFFFF
(012.392711) can1 18FD9400#0000FFFFFFFFFFFF
(012.393281) can1 0CF00203#C00000FFF7000003
(012.393872) can1 18F00E00#FFFFFFFFFFFFFFFF
(012.397521) can1 18F03300#FFFFFFFFFFFFFFFF
(012.398112) can1 18FEDF00#7DA0287D7DFFFFF0
(012.399240) can1 18F00131#FFFFFF3F00FFFFFF
(012.399803) can1 18FEF131#F7FFFFC3CCFFFFF0
(012.400399) can1 18FEF031#FFFFFFFFFFFCCCFF
(012.401002) can1 18FF4831#0000FFFF00000000
(012.401601) can1 18FEF231#FFFFFFFFFFFFFFFF
(012.402202) can1 0CF00331#FFFFFFFFFFFFFFFF
(012.402762) can1 18FEE000#73490300BCE03300
(012.403321) can1 0CF00203#C00000FFF7000003
(012.403911) can1 0CF00300#C10000FFFF0F6A7D
(012.404478) can1 0CF00C03#00FB0000FFFFFFFF
(012.407161) can1 18FEF200#0000FF7FAA08E0FF
(012.407762) can1 18F00F00#FFFFFFFFFFFFFFFF
(012.408481) can1 0CF00400#0E7D7D0000000F7D
(012.412641) can1 0C010305#FFFFFFFFFFF3FFFF
(012.413201) can1 0CF00203#C00000FFF7000003
(012.417521) can1 18FEDF00#7DA0287D7DFFFFF0
(012.418113) can1 10FCFD00#FFFFFFFF5951FFFF
(012.418680) can1 0CFD9200#F0FFFFFFFFFFFFFF
(012.422161) can1 0CF00300#C10000FFFF0F6A7D
(012.422922) can1 0CF00203#C00000FFF7000003
(012.423551) can1 0CF00C03#00FB0000FFFFFFFF
(012.427123) can1 18F00100#FFFFFFFFFFFFFFFF
(012.428401) can1 0CF00400#0E7D7D0000000F7D
(012.432867) can1 0CF00203#C00000FFF7000003
(012.437592) can1 18FEDF00#7DA0287D7DFFFFF0
(012.442188) can1 0CF00300#C10000FFFF0F6A7D
(012.442752) can1 0CF00A00#00000000FFFFFFFF
(012.443323) can1 0CF00203#C00000FFF7000003
(012.443881) can1 18FEF000#FFFFFFE015FFFFFF
(012.444482) can1 0CF00C03#00FB0000FFFFFFFF
(012.445073) can1 18F00E00#FFFFFFFFFFFFFFFF
(012.445632) can1 18F00503#7D00007D4E204E43
(012.446241) can1 18FE4A03#035F4FFFFFF3FFFF
(012.447192) can1 18F03300#FFFFFFFFFFFFFFFF
(012.448441) can1 0CF00400#0E7D7D0000000F7D
(012.449242) can1 0CF00331#FFFFFFFFFFFFFFFF
(012.452122) can1 18FCF200#E1FFFFFFFFFFFFFF
(012.452875) can1 0CF00203#C00000FFF7000003
(012.457588) can1 18FEDF00#7DA0287D7DFFFFF0
(012.458151) can1 18F00F00#FFFFFFFFFFFFFFFF
(012.462193) can1 18FD0700#570CFCFFFFFFFFFF
(012.462761) can1 0C010305#FFFFFFFFFFF3FFFF
(012.463350) can1 0CF00203#C00000FFF7000003
(012.463921) can1 0CF00300#C10000FFFF0F6A7D
(012.464513) can1 0CF00C03#00FB0000FFFFFFFF
(012.465041) can1 18F0010B#CFFFF0FFFFDCFFFF
(012.465632) can1 18FEF100#FF0400FCFF6800CF
(012.468402) can1 0CF00400#0E7D7D0000000F7D
(012.472122) can1 10FDA300#FFFF89FFFFFFFFFF
(012.472712) can1 18FEBF0B#00007D7D7D7DFFFF
(012.473282) can1 0CF00203#C00000FFF7000003
(012.473841) can1 18F00029#F07D7DF329FFFF7D
(012.477641) can1 18FEDF00#7DA0287D7DFFFFF0
(012.482162) can1 18FCDC00#9FFFFFFF9C680400
(012.482721) can1 0CF00300#C10000FFFF0F6A7D
(012.483312) can1 0CF00203#C00000FFF7000003
(012.483881) can1 1CFE9200#FF4C7DFFFFFF0000
(012.484473) can1 0CF00C03#00FB0000FFFFFFFF
(012.488432) can1 0CF00400#0E7D7D0000000F7D
(012.492121) can1 14FC9800#FF000000000000FF
(012.492711) can1 0CF00A00#00000000FFFFFFFF
(012.493280) can1 0CF00203#C00000FFF7000003
(012.493868) can1 18FD9400#0000FFFFFFFFFFFF
(012.494473) can1 18F00E00#FFFFFFFFFFFFFFFF
(012.497592) can1 18F03300#FFFFFFFFFFFFFFFF
(012.498162) can1 18FEDF00#7DA0287D7DFFFFF0
(012.499241) can1 18F00131#FFFFFF3F00FFFFFF
(012.499802) can1 18FEF131#F7FFFFC3CCFFFFF0
(012.500401) can1 18FEF031#FFFFFFFFFFFCCCFF
(012.501001) can1 18FF4831#0000FFFF00000000
(012.501601) can1 18FEF231#FFFFFFFFFFFFFFFF
(012.502201) can1 0CF00331#FFFFFFFFFFFFFFFF
(012.502761) can1 18FEE000#73490300BCE03300
(012.503321) can1 0CF00203#C00000FFF7000003
(012.503912) can1 0CF00300#C10000FFFF0F6A7D
(012.504481) can1 0CF00C03#00FB0000FFFFFFFF
(012.507162) can1 18FDB400#C3265925FFFFFFFF
(012.507751) can1 18FEF200#0000FF7FAA08DFFF
(012.508350) can1 18F00F00#FFFFFFFFFFFFFFFF
(012.508921) can1 0CF00400#0E7D7D0000000F7D
(012.512631) can1 0C010305#FFFFFFFFFFF3FFFF
(012.513201) can1 0CF00203#C00000FFF7000003
(012.517592) can1 18FEDF00#7DA0287D7DFFFFF0
(012.518161) can1 10FCFD00#FFFFFFFF5951FFFF
(012.522163) can1 0CF00300#C10000FFFF0F6A7D
(012.522921) can1 0CF00203#C00000FFF7000003
(012.523552) can1 0CF00C03#00FB0000FFFFFFFF
(012.527162) can1 18F00100#FFFFFFFFFFFFFFFF
(012.528402) can1 0CF00400#0E7D7D0000000F7D
(012.532121) can1 18FDB300#FFFF6624FFFFFFFF
(012.532842) can1 0CF00203#C00000FFF7000003
(012.537642) can1 18FEDF00#7DA0287D7DFFFFF0
(012.542161) can1 0CF00300#C10000FFFF0F6A7D
(012.542760) can1 0CF00A00#00000000FFFFFFFF
(012.543321) can1 0CF00203#C00000FFF7000003
(012.543921) can1 18FEF000#FFFFFFE015FFFFFF
(012.544482) can1 0CF00C03#00FB0000FFFFFFFF
(012.545107) can1 18F00E00#FFFFFFFFFFFFFFFF
(012.545642) can1 18F00503#7D00007D4E204E43
(012.546242) can1 18FE4A03#035F4FFFFFF3FFFF
(012.547202) can1 18F03300#FFFFFFFFFFFFFFFF
(012.548472) can1 0CF00400#0E7D7D0000000F7D
(012.549238) can1 0CF00331#FFFFFFFFFFFFFFFF
(012.552152) can1 18FDB200#FFFFFFFF0600FFFF
(012.552722) can1 18FCF200#E1FFFFFFFFFFFFFF
(012.553309) can1 0CF00203#C00000FFF7000003
(012.557643) can1 18FEDF00#7DA0287D7DFFFFF0
(012.558232) can1 18F00F00#FFFFFFFFFFFFFFFF
(012.562202) can1 0CF00300#C10000FFFF0F6A7D
(012.562762) can1 0C010305#FFFFFFFFFFF3FFFF
(012.563352) can1 0CF00203#C00000FFF7000003
(012.563921) can1 18F0010B#CFFFF0FFFFDCFFFF
(012.564482) can1 0CF00C03#00FB0000FFFFFFFF
(012.565071) can1 18FEF100#FF0000FCFF6800CF
(012.568434) can1 0CF00400#0E7D7D0000000F7D
(012.572189) can1 10FDA300#FFFF7FFFFFFFFFFF
(012.572722) can1 18F00029#F07D7DF329FFFF7D
(012.573282) can1 0CF00203#C00000FFF7000003
(012.573881) can1 18FEBF0B#00007D7D7D7DFFFF
(012.577592) can1 18FD8C00#FFFF0000FFFFFFFF
(012.578162) can1 18FEDF00#7DA0287D7DFFFFF0
(012.582202) can1 18FCDC00#9FFFFFFF9C680000
(012.582761) can1 0CF00300#C10000FFFF0F6A7D
(012.583353) can1 0CF00203#C00000FFF7000003
(012.583921) can1 1CFE9200#FF4C7DFFFFFF0000
(012.584522) can1 0CF00C03#00FB0000FFFFFFFF
(012.588432) can1 0CF00400#0E7D7D0000000F7D
(012.592163) can1 0CF00A00#00000000FFFFFFFF
(012.592752) can1 18FD9400#0000FFFFFFFFFFFF
(012.593321) can1 0CF00203#C00000FFF7000003
(012.593912) can1 18F00E00#FFFFFFFFFFFFFFFF
(012.597561) can1 18FD2000#C326FFFFFFFFFFFF
(012.598152) can1 18F03300#FFFFFFFFFFFFFFFF
(012.598721) can1 18FEDF00#7DA0287D7DFFFFF0
(012.599282) can1 18F00131#FFFFFF3F00FFFFFF
(012.599881) can1 18FEF131#F7FFFFC3CCFFFFF0
(012.600472) can1 18FEF031#FFFFFFFFFFFCCCFF
(012.601041) can1 18FEFC31#FF33FFFFFFFF00FF
(012.601631) can1 18FEAE31#FFFF0401FFFFFFFF
(012.602202) can1 18FEF731#FFFFFFFFED00FFFF
(012.602761) can1 18FEE000#73490300BCE03300
(012.603322) can1 0CF00203#C00000FFF7000003
(012.603932) can1 0CF00300#C10000FFFF0F6A7D
(012.604492) can1 0CF00C03#00FB0000FFFFFFFF
(012.605062) can1 18FF4831#0000FFFF00000000
(012.605661) can1 18FD8331#F8FFFFFFFFFFFFFF
(012.606262) can1 18FEF831#FFFFFFFFFFFFFFFF
(012.606862) can1 18FEF231#FFFFFFFFFFFFFFFF
(012.607451) can1 18FEF200#00000000AB08DFFF
(012.608021) can1 18F00F00#FFFFFFFFFFFFFFFF
(012.608613) can1 18FEFA31#FF0902FFFFFFFFFF
(012.609182) can1 0CF00400#0E7D7D0000000F7D
(012.609742) can1 18FEC131#FFFFFFFAFFFFFFFF
(012.610368) can1 0CF00331#FFFFFFFFFFFFFFFF
(012.612648) can1 0C010305#FFFFFFFFFFF3FFFF
(012.614811) can1 0CF00203#C00000FFF7000003
(012.617572) can1 18FEDF00#7DA0287D7DFFFFF0
(012.618149) can1 10FCFD00#FFFFFFFF5951FFFF
(012.622163) can1 18FD3E00#4C24FF6924FFFFFF
(012.622753) can1 0CF00300#C10000FFFF0F6A7D
(012.623322) can1 0CF00203#C00000FFF7000003
(012.623922) can1 0CF00C03#00FB0000FFFFFFFF
(012.627162) can1 18F00100#FFFFFFFFFFFFFFFF
(012.628432) can1 0CF00400#0E7D7D0000000F7D
(012.632872) can1 0CF00203#C00000FFF7000003
(012.637623) can1 18FEDF00#7DA0287D7DFFFFF0
(012.642183) can1 18FD4000#FF3F00FFFFFFFFFF
(012.642742) can1 0CF00300#C10000FFFF0F6A7D
(012.643332) can1 0CF00203#C00000FFF7000003
(012.643932) can1 0CF00A00#00000000FFFFFFFF
(012.644502) can1 0CF00C03#00FB0000FFFFFFFF
(012.645091) can1 18FEF000#FFFFFFE015FFFFFF
(012.645623) can1 18F00503#7D00007D4E204E43
(012.646252) can1 18F00E00#FFFFFFFFFFFFFFFF
(012.646811) can1 18FE4A03#035F4FFFFFF3FFFF
(012.647381) can1 18F03300#FFFFFFFFFFFFFFFF
(012.647971) can1 18FD9503#CCFFFFBBFFFFFFFF
(012.648541) can1 0CF00400#0E7D7D0000000F7D
(012.649102) can1 18FEF803#FFFFFFFF1124FFFF
(012.649702) can1 0CF00331#FFFFFFFFFFFFFFFF
(012.652252) can1 18FCF200#E1FFFFFFFFFFFFFF
(012.652862) can1 0CF00203#C00000FFF7000003
(012.657569) can1 18FEDF00#7DA0287D7DFFFFF0
(012.658143) can1 18F00F00#FFFFFFFFFFFFFFFF
(012.662182) can1 0CF00300#C10000FFFF0F6A7D
(012.662782) can1 0C010305#FFFFFFFFFFF3FFFF
(012.663341) can1 0CF00203#C00000FFF7000003
(012.663902) can1 18F0010B#CFFFF0FFFFDCFFFF
(012.664502) can1 0CF00C03#00FB0000FFFFFFFF
(012.665062) can1 18FEF100#FF0000FCFF6800CF
(012.667142) can1 18FCC500#4C24FFFFFFFFFFFF
(012.667742) can1 0CFD9200#F0FFFFFFFFFFFFFF
(012.668492) can1 0CF00400#0E7D7D0000000F7D
(012.672143) can1 10FDA300#FFFF77FFFFFFFFFF
(012.672723) can1 18F00029#F07D7DF329FFFF7D
(012.673283) can1 0CF00203#C00000FFF7000003
(012.673882) can1 18FEBF0B#00007D7D7D7DFFFF
(012.674443) can1 18FECA03#00FF00000000FFFF
(012.677632) can1 18FEDF00#7DA0287D7DFFFFF0
(012.682202) can1 18FCDC00#9FFFFFFF9C680000
(012.682762) can1 0CF00300#C10000FFFF0F6A7D
(012.683352) can1 0CF00203#C00000FFF7000003
(012.683922) can1 1CFE9200#FF4C7DFFFFFF0000
(012.684512) can1 0CF00C03#00FB0000FFFFFFFF
(012.688473) can1 0CF00400#0E7D7D0000000F7D
(012.692161) can1 0CF00A00#00000000FFFFFFFF
(012.692752) can1 18FD9400#0000FFFFFFFFFFFF
(012.693321) can1 0CF00203#C00000FFF7000003
(012.693882) can1 18FEEF00#FFFFFF00FF7CFFFA
(012.694481) can1 18F00E00#FFFFFFFFFFFFFFFF
(012.697593) can1 18F03300#FFFFFFFFFFFFFFFF
(012.698162) can1 18FEDF00#7DA0287D7DFFFFF0
(012.699271) can1 18F00131#FFFFFF3F00FFFFFF
(012.699803) can1 18FEF131#F7FFFFC3CCFFFFF0
(012.700404) can1 18FEF031#FFFFFFFFFFFCCCFF
(012.701003) can1 18FF4831#0000FFFF00000000
(012.701601) can1 18FEF231#FFFFFFFFFFFFFFFF
(012.702202) can1 0CF00331#FFFFFFFFFFFFFFFF
(012.702761) can1 18FEE000#73490300BCE03300
(012.703319) can1 0CF00203#C00000FFF7000003
(012.703912) can1 0CF00300#C10000FFFF0F6A7D
(012.704510) can1 0CF00C03#00FB0000FFFFFFFF
(012.707230) can1 18FEF200#00000000AA08DFFF
(012.707802) can1 18F00F00#FFFFFFFFFFFFFFFF
(012.708513) can1 0CF00400#0E7D7D0000000F7D
(012.712162) can1 18FEDB00#FFFF7400FFFFFFFF
(012.712763) can1 0C010305#FFFFFFFFFFF3FFFF
(012.713323) can1 0CF00203#C00000FFF7000003
(012.717561) can1 18FEDF00#7DA0287D7DFFFFF0
(012.718193) can1 10FCFD00#FFFFFFFF5951FFFF
(012.722202) can1 0CF00300#C10000FFFF0F6A7D
(012.722922) can1 0CF00203#C00000FFF7000003
(012.723553) can1 0CF00C03#00FB0000FFFFFFFF
(012.727162) can1 18F00100#FFFFFFFFFFFFFFFF
(012.728442) can1 0CF00400#0E7D7D0000000F7D
(012.732162) can1 18FEF600#FF0039FFFFFFFFFF
(012.732842) can1 0CF00203#C00000FFF7000003
(012.737632) can1 18FEDF00#7DA0287D7DFFFFF0
(012.742202) can1 0CF00300#C10000FFFF0F6A7D
(012.742791) can1 0CF00A00#00000000FFFFFFFF
(012.743392) can1 0CF00203#C00000FFF7000003
(012.743951) can1 18FEF000#FFFFFFE015FFFFFF
(012.744521) can1 0CF00C03#00FB0000FFFFFFFF
(012.745122) can1 18F00E00#FFFFFFFFFFFFFFFF
(012.745672) can1 18F00503#7D00007D4E204E43
(012.746281) can1 18FE4A03#035F4FFFFFF3FFFF
(012.747232) can1 18F03300#FFFFFFFFFFFFFFFF
(012.748511) can1 0CF00400#0E7D7D0000000F7D
(012.749242) can1 0CF00331#FFFFFFFFFFFFFFFF
(012.752162) can1 18FCF200#E1FFFFFFFFFFFFFF
(012.752872) can1 0CF00203#C00000FFF7000003
(012.757588) can1 18FEDF00#7DA0287D7DFFFFF0
(012.758164) can1 18FDC600#FC04FFFFFFFFFFFF
(012.758753) can1 18F00F00#FFFFFFFFFFFFFFFF
(012.762201) can1 0CF00300#C10000FFFF0F6A7D
(012.762802) can1 0C010305#FFFFFFFFFFF3FFFF
(012.763362) can1 0CF00203#C00000FFF7000003
(012.763921) can1 18F0010B#CFFFF0FFFFDCFFFF
(012.764521) can1 0CF00C03#00FB0000FFFFFFFF
(012.765081) can1 18FEF100#FF0000FCFF6800CF
(012.768442) can1 0CF00400#0E7D7D0000000F7D
(012.772191) can1 10FDA300#FFFF6CFFFFFFFFFF
(012.772752) can1 18F00029#F07D7DF329FFFF7D
(012.773323) can1 0CF00203#C00000FFF7000003
(012.773912) can1 18FEBF0B#00007D7D7D7DFFFF
(012.777642) can1 18FEDF00#7DA0287D7DFFFFF0
(012.782232) can1 18FCDC00#9FFFFFFF9C680000
(012.782802) can1 0CF00300#C10000FFFF0F6A7D
(012.783362) can1 0CF00203#C00000FFF7000003
(012.783951) can1 18FECA0B#04FF00000000FFFF
(012.784521) can1 0CF00C03#00FB0000FFFFFFFF
(012.785121) can1 1CFE9200#FF507DFFFFFF0000
(012.788442) can1 0CF00400#0E7D7D0000000F7D
(012.792161) can1 0CF00A00#00000000FFFFFFFF
(012.792761) can1 18FD9400#0000FFFFFFFFFFFF
(012.793322) can1 0CF00203#C00000FFF7000003
(012.793921) can1 18F00E00#FFFFFFFFFFFFFFFF
(012.797591) can1 18F03300#FFFFFFFFFFFFFFFF
(012.798192) can1 18FEDF00#7DA0287D7DFFFFF0
(012.799241) can1 18F00131#FFFFFF3F00FFFFFF
(012.799832) can1 18FEF131#F7FFFFC3CCFFFFF0
(012.800402) can1 18FEF031#FFFFFFFFFFFCCCFF
(012.801027) can1 18FF4831#0000FFFF00000000
(012.801601) can1 18FEF231#FFFFFFFFFFFFFFFF
(012.802201) can1 0CF00331#FFFFFFFFFFFFFFFF
(012.802793) can1 18FEF700#FFFFFFFFED00FFFF
(012.803361) can1 0CF00203#C00000FFF7000003
(012.803921) can1 18FEE000#73490300BCE03300
(012.804512) can1 0CF00C03#00FB0000FFFFFFFF
(012.805082) can1 0CF00300#C10000FFFF0F6A7D
(012.807233) can1 18FEF200#00000000AA08DEFF
(012.807842) can1 18F00F00#FFFFFFFFFFFFFFFF
(012.808521) can1 0CF00400#0E7D7D0000000F7D
(012.812642) can1 0C010305#FFFFFFFFFFF3FFFF
(012.813232) can1 0CF00203#C00000FFF7000003
(012.817592) can1 18FEDF00#7DA0287D7DFFFFF0
(012.818162) can1 10FCFD00#FFFFFFFF5951FFFF
(012.822193) can1 18FEC100#5FF210054F2C5200
(012.822761) can1 0CF00300#C10000FFFF0F6A7D
(012.823322) can1 0CF00203#C00000FFF7000003
(012.823952) can1 0CF00C03#00FB0000FFFFFFFF
(012.827202) can1 18F00100#FFFFFFFFFFFFFFFF
(012.828472) can1 0CF00400#0E7D7D0000000F7D
(012.832871) can1 0CF00203#C00000FFF7000003
(012.837707) can1 18FEDF00#7DA0287D7DFFFFF0
(012.842202) can1 0CF00300#C10000FFFF0F6A7D
(012.842801) can1 0CF00A00#00000000FFFFFFFF
(012.843362) can1 0CF00203#C00000FFF7000003
(012.843961) can1 18FEF000#FFFFFFE015FFFFFF
(012.844521) can1 0CF00C03#00FB0000FFFFFFFF
(012.845121) can1 18F00E00#FFFFFFFFFFFFFFFF
(012.845682) can1 18F00503#7D00007D4E204E43
(012.846282) can1 18FE4A03#035F4FFFFFF3FFFF
(012.847241) can1 18FE5600#9735FFFF1F1F00FF
(012.847833) can1 18F03300#FFFFFFFFFFFFFFFF
(012.848562) can1 0CF00400#0E7D7D0000000F7D
(012.849242) can1 0CF00331#FFFFFFFFFFFFFFFF
(012.852232) can1 18FCF200#DEFFFFFFFFFFFFFF
(012.852873) can1 0CF00203#C00000FFF7000003
(012.857593) can1 18FEDF00#7DA0287D7DFFFFF0
(012.858162) can1 18F00F00#FFFFFFFFFFFFFFFF
(012.862243) can1 0CF00300#C10000FFFF0F6A7D
(012.862842) can1 0C010305#FFFFFFFFFFF3FFFF
(012.863401) can1 0CF00203#C00000FFF7000003
(012.863961) can1 18F0010B#CFFFF0FFFFDCFFFF
(012.864561) can1 0CF00C03#00FB0000FFFFFFFF
(012.865121) can1 18FEF100#FF0000FCFF6800CF
(012.867201) can1 18FD7B00#00FFE67700008237
(012.868482) can1 0CF00400#0E7D7D0000000F7D
(012.872241) can1 10FDA300#FFFF62FFFFFFFFFF
(012.872801) can1 18F00029#F07D7DF329FFFF7D
(012.873361) can1 0CF00203#C00000FFF7000003
(012.873961) can1 18FEBF0B#00007D7D7D7DFFFF
(012.877602) can1 18FEDF00#7DA0287D7DFFFFF0
(012.882202) can1 18FCDC00#9FFFFFFF9C680000
(012.882801) can1 0CF00300#C10000FFFF0F6A7D
(012.883362) can1 0CF00203#C00000FFF7000003
(012.883953) can1 1CFE9200#FF4C7DFFFFFF0000
(012.884521) can1 0CF00C03#00FB0000FFFFFFFF
(012.888442) can1 0CF00400#0E7D7D0000000F7D
(012.892192) can1 0CF00A00#00000000FFFFFFFF
(012.892762) can1 18FD9400#0000FFFFFFFFFFFF
(012.893352) can1 0CF00203#C00000FFF7000003
(012.893921) can1 18FEDD00#FF0000FFFFFFFFFF
(012.894521) can1 18F00E00#FFFFFFFFFFFFFFFF
(012.897602) can1 18F03300#FFFFFFFFFFFFFFFF
(012.898162) can1 18FEDF00#7DA0287D7DFFFFF0
(012.899241) can1 18F00131#FFFFFF3F00FFFFFF
(012.899831) can1 18FEF131#F7FFFFC3CCFFFFF0
(012.900400) can1 18FEF031#FFFFFFFFFFFCCCFF
(012.901002) can1 18FF4831#0000FFFF00000000
(012.901602) can1 18FEF231#FFFFFFFFFFFFFFFF
(012.902201) can1 0CF00331#FFFFFFFFFFFFFFFF
(012.902760) can1 18FEE000#73490300BCE03300
(012.903322) can1 0CF00203#C00000FFF7000003
(012.903883) can1 0CF00300#D10000FFFF0F6A7D
(012.904482) can1 0CF00C03#00FB0000FFFFFFFF
(012.907242) can1 18FEF200#00000000AA08E0FF
(012.907842) can1 18F00F00#FFFFFFFFFFFFFFFF
(012.908521) can1 0CF00400#0E7D7D0000000F7D
(012.912201) can1 18FEE400#FF3FFCFD007FFFFF
(012.912792) can1 0C010305#FFFFFFFFFFF3FFFF
(012.913361) can1 0CF00203#C00000FFF7000003
(012.917632) can1 18FEDF00#7DA0287D7DFFFFF0
(012.918191) can1 10FCFD00#FFFFFFFF5951FFFF
(012.918762) can1 0CFD9200#F0FFFFFFFFFFFFFF
(012.922227) can1 0CF00300#D10000FFFF0F6A7D
(012.922922) can1 0CF00203#C00000FFF7000003
(012.923553) can1 0CF00C03#00FB0000FFFFFFFF
(012.927202) can1 18F00100#FFFFFFFFFFFFFFFF
(012.928442) can1 0CF00400#0E7D7D0000000F7D
(012.932872) can1 0CF00203#C00000FFF7000003
(012.937641) can1 18FEDF00#7DA0287D7DFFFFF0
(012.942202) can1 0CF00300#D10000FFFF0F6A7D
(012.942832) can1 0CF00A00#00000000FFFFFFFF
(012.943362) can1 0CF00203#C00000FFF7000003
(012.943961) can1 18FEF000#FFFFFFE015FFFFFF
(012.944522) can1 0CF00C03#00FB0000FFFFFFFF
(012.945121) can1 18FEBD00#00F0FFFFFFFFFFFF
(012.945681) can1 18F00503#7D00007D4E204E43
(012.946271) can1 18F00E00#FFFFFFFFFFFFFFFF
(012.946841) can1 18FE4A03#035F4FFFFFF3FFFF
(012.947432) can1 18F03300#FFFFFFFFFFFFFFFF
(012.948481) can1 0CF00400#0E7D7D0000000F7D
(012.949241) can1 0CF00331#FFFFFFFFFFFFFFFF
(012.949841) can1 18FECA31#00FF00000000FFFF
(012.952273) can1 18FCF200#E6FFFFFFFFFFFFFF
(012.952873) can1 0CF00203#C00000FFF7000003
(012.957634) can1 18FEDF00#7DA0287D7DFFFFF0
(012.958203) can1 18E0FF00#00FFFFFFFFFFFFFF
(012.958802) can1 18F00F00#FFFFFFFFFFFFFFFF
(012.962241) can1 0CF00300#D10000FFFF0F6A7D
(012.962842) can1 0C010305#FFFFFFFFFFF3FFFF
(012.963401) can1 0CF00203#C00000FFF7000003
(012.963961) can1 18F0010B#CFFFF0FFFFDCFFFF
(012.964561) can1 0CF00C03#00FB0000FFFFFFFF
(012.965122) can1 18FEF100#FF0000FCFF6800CF
(012.967233) can1 18FEEE00#37FFFFFFFFFFFFFF
(012.968481) can1 0CF00400#0E7D7D0000000F7D
(012.972202) can1 10FDA300#FFFF5AFFFFFFFFFF
(012.972763) can1 18F00029#F07D7DF329FFFF3C
(012.973322) can1 0CF00203#C00000FFF7000003
(012.973912) can1 18FEBF0B#00007D7D7D7DFFFF
(012.977642) can1 18FEDF00#7DA0287D7DFFFFF0
(012.982241) can1 18FCDC00#9FFFFFFF9C680000
(012.982802) can1 0CF00300#D10000FFFF0F6A7D
(012.983391) can1 0CF00203#C00000FFF7000003
(012.983961) can1 1CFE9200#FF647DFFFFFF0000
(012.984552) can1 0CF00C03#00FB0000FFFFFFFF
(012.985122) can1 18FEF500#AAFFFF4E25FFFFFF
(012.988442) can1 0CF00400#0E7D7D0000000F7D
(012.992161) can1 14FC9800#FF000000000000FF
(012.992762) can1 0CF00A00#00000000FFFFFFFF
(012.993321) can1 0CF00203#C00000FFF7000003
(012.993921) can1 18FD9400#0000FFFFFFFFFFFF
(012.994521) can1 18F00E00#FFFFFFFFFFFFFFFF
(012.997602) can1 18F03300#FFFFFFFFFFFFFFFF
(012.998191) can1 18FEDF00#7DA0287D7DFFFFF0
(012.999241) can1 18F00131#FFFFFF3F00FFFFFF
(012.999842) can1 18FEF131#F7FFFFC3CCFFFFF0
(013.000401) can1 18FEF031#FFFFFFFFFFFCCCFF
(013.001002) can1 18F11031#0000FFFFFFFFFFFF
(013.001632) can1 18FF4831#0000FFFF00000000
(013.002203) can1 18FEF231#FFFFFFFFFFFFFFFF
(013.002763) can1 18FEE000#73490300BCE03300
(013.003352) can1 0CF00203#C00000FFF7000003
(013.003921) can1 0CF00300#D10000FFFF0F6A7D
(013.004481) can1 0CF00331#FFFFFFFFFFFFFFFF
(013.005073) can1 0CF00C03#00FB0000FFFFFFFF
(013.005632) can1 18FEA400#FFFF1C24FFFF3B24
(013.007243) can1 18FDB400#C9265925FFFFFFFF
(013.007841) can1 18FEF200#00000000AA08EFFF
(013.008441) can1 18F00F00#FFFFFFFFFFFFFFFF
(013.009001) can1 0CF00400#0E7D7D0000000F7D
(013.012684) can1 0C010305#FFFFFFFFFFF3FFFF
(013.013282) can1 0CF00203#C00000FFF7000003
(013.017602) can1 18FEDF00#7DA0287D7DFFFFF0
(013.018193) can1 10FCFD00#FFFFFFFF5951FFFF
(013.022238) can1 0CF00300#D10000FFFF0F6A7D
(013.022921) can1 0CF00203#C00000FFF7000003
(013.023561) can1 0CF00C03#00FB0000FFFFFFFF
(013.027198) can1 18FD7C00#F8830100C31F03FF
(013.027793) can1 18F00100#FFFFFFFFFFFFFFFF
(013.028482) can1 0CF00400#0E7D7D0000000F7D
(013.032193) can1 18FDB300#FFFF6324FFFFFFFF
(013.032872) can1 0CF00203#C00000FFF7000003
(013.037643) can1 18FEDF00#7DA0287D7DFFFFF0
(013.042203) can1 0CF00300#D10000FFFF0F6A7D
(013.042802) can1 0CF00A00#00000000FFFFFFFF
(013.043391) can1 0CF00203#C00000FFF7000003
(013.043961) can1 18FEF000#FFFFFFE015FFFFFF
(013.044552) can1 0CF00C03#00FB0000FFFFFFFF
(013.045151) can1 18F00E00#FFFFFFFFFFFFFFFF
(013.045682) can1 18F00503#7D00007D4E204E43
(013.046313) can1 18FE4A03#035F4FFFFFF3FFFF
(013.047272) can1 18F03300#FFFFFFFFFFFFFFFF
(013.047841) can1 18FE9A00#7624FFFFFFFFFFFF
(013.048561) can1 0CF00400#0E7D7D0000000F7D
(013.049241) can1 0CF00331#FFFFFFFFFFFFFFFF
(013.052201) can1 18FDB200#FFFFFFFF0600FFFF
(013.052802) can1 18FCF200#F1FFFFFFFFFFFFFF
(013.053361) can1 0CF00203#C00000FFF7000003
(013.057602) can1 18FEDF00#7DA0287D7DFFFFF0
(013.058202) can1 18F00F00#FFFFFFFFFFFFFFFF
(013.062242) can1 0CF00300#D10000FFFF0F6A7D
(013.062832) can1 0C010305#FFFFFFFFFFF3FFFF
(013.063402) can1 0CF00203#C00000FFF7000003
(013.063961) can1 18F0010B#CFFFF0FFFFDCFFFF
(013.064554) can1 0CF00C03#00FB0000FFFFFFFF
(013.065121) can1 18FEF100#FF0000FCFF6800CF
(013.068482) can1 0CF00400#0E7D7D0000000F7D
(013.072202) can1 10FDA300#FFFF4FFFFFFFFFFF
(013.072803) can1 18FE9900#FFFFFFFFFFFFFFFF
(013.073362) can1 0CF00203#C00000FFF7000003
(013.073921) can1 18F00029#F07D7DF329FFFF3C
(013.074520) can1 18FEBF0B#00007D7D7D7DFFFF
(013.077641) can1 18FD8C00#FFFF0000FFFFFFFF
(013.078201) can1 18FEDF00#7DA0287D7DFFFFF0
(013.082243) can1 18FCDC00#9FFFFFFF9C680000
(013.082803) can1 0CF00300#D10000FFFF0F6A7D
(013.083362) can1 0CF00203#C00000FFF7000003
(013.083961) can1 1CFE9200#FF607DFFFFFF0000
(013.084547) can1 0CF00C03#00FB0000FFFFFFFF
(013.088471) can1 0CF00400#0E7D7D0000000F7D
(013.092202) can1 0CF00A00#00000000FFFFFFFF
(013.092792) can1 18FD9400#0000FFFFFFFFFFFF
(013.093362) can1 0CF00203#C00000FFF7000003
(013.093951) can1 18FEFC00#FFFFFFFFFFFFFFFF
(013.094523) can1 18F00E00#FFFFFFFFFFFFFFFF
(013.097628) can1 18FD2000#C926FFFFFFFFFFFF
(013.098202) can1 18F03300#FFFFFFFFFFFFFFFF
(013.098761) can1 18FEDF00#7DA0287D7DFFFFF0
(013.099352) can1 18F00131#FFFFFF3F00FFFFFF
(013.099921) can1 18FEF131#F7FFFFC3CCFFFFF0
(013.100513) can1 18FEF031#FFFFFFFFFFFCCCFF
(013.101121) can1 18FF4831#0000FFFF00000000
(013.101748) can1 18FEF231#FFFFFFFFFFFFFFFF
(013.102311) can1 0CF00331#FFFFFFFFFFFFFFFF
(013.102871) can1 18FEE000#73490300BCE03300
(013.103442) can1 0CF00203#C00000FFF7000003
(013.104001) can1 0CF00300#D10000FFFF0F6A7D
(013.104562) can1 0CF00C03#00FB0000FFFFFFFF
(013.107273) can1 18FEF200#00000000AA08FAFF
(013.107841) can1 18F00F00#FFFFFFFFFFFFFFFF
(013.108521) can1 0CF00400#0E7D7D0000000F7D
(013.112682) can1 0C010305#FFFFFFFFFFF3FFFF
(013.113272) can1 0CF00203#C00000FFF7000003
(013.117629) can1 18FEDF00#7DA0287D7DFFFFF0
(013.118203) can1 10FCFD00#FFFFFFFF5951FFFF
(013.122232) can1 18FD3E00#5024FF6924FFFFFF
(013.122802) can1 0CF00300#D10000FFFF0F6A7D
(013.123362) can1 0CF00203#C00000FFF7000003
(013.123963) can1 0CF00C03#00FB0000FFFFFFFF
(013.127201) can1 18F00100#FFFFFFFFFFFFFFFF
(013.128472) can1 0CF00400#0E7D7D0000000F7D
(013.132873) can1 0CF00203#C00000FFF7000003
(013.137672) can1 18FEDF00#7DA0287D7DFFFFF0
(013.142242) can1 18FD4000#FF3F00FFFFFFFFFF
(013.142802) can1 0CF00300#D10000FFFF0F6A7D
(013.143361) can1 0CF00203#C00000FFF7000003
(013.143962) can1 0CF00A00#00000000FFFFFFFF
(013.144553) can1 0CF00C03#00FB0000FFFFFFFF
(013.145121) can1 18FEF000#FFFFFFE015FFFFFF
(013.145681) can1 18F00503#7D00007D4E204E43
(013.146281) can1 18F00E00#FFFFFFFFFFFFFFFF
(013.146843) can1 18FE4A03#035F4FFFFFF3FFFF
(013.147441) can1 18FECA00#03FF00000000FFFF
(013.148031) can1 18F03300#FFFFFFFFFFFFFFFF
(013.148601) can1 0CF00400#0E7D7D0000000F7D
(013.149242) can1 0CF00331#FFFFFFFFFFFFFFFF
(013.152242) can1 18FCF200#F6FFFFFFFFFFFFFF
(013.152881) can1 0CF00203#C00000FFF7000003
(013.157628) can1 18FEDF00#7DA0287D7DFFFFF0
(013.158204) can1 18F00F00#FFFFFFFFFFFFFFFF
(013.162242) can1 0CF00300#D10000FFFF0F6A7D
(013.162842) can1 0C010305#FFFFFFFFFFF3FFFF
(013.163402) can1 0CF00203#C00000FFF7000003
(013.163962) can1 18F0010B#CFFFF0FFFFDCFFFF
(013.164562) can1 0CF00C03#00FB0000FFFFFFFF
(013.165121) can1 18FEF100#FF0000FCFF6800CF
(013.165681) can1 1CECFF29#20130003FFE1FE00
(013.167242) can1 18FCC500#5024FFFFFFFFFFFF
(013.167801) can1 0CFD9200#F0FFFFFFFFFFFFFF
(013.168521) can1 0CF00400#0E7D7D0000000F7D
(013.172201) can1 10FDA300#FFFF46FFFFFFFFFF
(013.172762) can1 18F00029#F07D7DF329FFFF3C
(013.173352) can1 0CF00203#C00000FFF7000003
(013.173953) can1 18FEBF0B#00007D7D7D7DFFFF
(013.177673) can1 18FEDF00#7DA0287D7DFFFFF0
(013.182272) can1 18FCDC00#9FFFFFFF9C680000
(013.182842) can1 0CF00300#D10000FFFF0F6A7D
(013.183402) can1 0CF00203#C00000FFF7000003
(013.183993) can1 1CFE9200#FF647DFFFFFF0000
(013.184561) can1 0CF00C03#00FB0000FFFFFFFF
(013.185152) can1 18FEFF00#FCC0FFFFFFFFFFFF
(013.188482) can1 0CF00400#0E7D7D0000000F7D
(013.192223) can1 0CF00A00#00000000FFFFFFFF
(013.192812) can1 18FD9400#0000FFFFFFFFFFFF
(013.193382) can1 0CF00203#C00000FFF7000003
(013.193973) can1 18FEEF00#FFFFFF00FF7CFFFA
(013.194542) can1 18F00E00#FFFFFFFFFFFFFFFF
(013.197652) can1 18F03300#FFFFFFFFFFFFFFFF
(013.198223) can1 18FEDF00#7DA0287D7DFFFFF0
(013.199262) can1 18F00131#FFFFFF3F00FFFFFF
(013.199822) can1 18FEF131#F7FFFFC3CCFFFFF0
(013.200421) can1 18FEF031#FFFFFFFFFFFCCCFF
(013.201021) can1 18FF4831#0000FFFF00000000
(013.201621) can1 18FEF231#FFFFFFFFFFFFFFFF
(013.202213) can1 0CF00331#FFFFFFFFFFFFFFFF
(013.202773) can1 18FEE000#73490300BCE03300
(013.203342) can1 0CF00203#C00000FFF7000003
(013.203903) can1 0CF00300#D10000FFFF0F6A7D
(013.204492) can1 0CF00C03#00FB0000FFFFFFFF
(013.207261) can1 18FEF200#00000000AB08FAFF
(013.207861) can1 18F00F00#FFFFFFFFFFFFFFFF
(013.208542) can1 0CF00400#0E7D7D0000000F7D
(013.212221) can1 18FEDB00#FFFF8000FFFFFFFF
(013.212822) can1 0C010305#FFFFFFFFFFF3FFFF
(013.213381) can1 0CF00203#C00000FFF7000003
(013.213941) can1 1CEBFF29#01140138183C4051
(013.217622) can1 18FEDF00#7DA0287D7DFFFFF0
(013.218213) can1 10FCFD00#FFFFFFFF5951FFFF
(013.222262) can1 0CF00300#D10000FFFF0F6A7D
(013.222941) can1 0CF00203#C00000FFF7000003
(013.223541) can1 0CF00C03#00FB0000FFFFFFFF
(013.227222) can1 18F00100#FFFFFFFFFFFFFFFF
(013.228462) can1 0CF00400#0E7D7D0000000F7D
(013.232221) can1 18FEF600#FF0039FFFFFFFFFF
(013.232861) can1 0CF00203#C00000FFF7000003
(013.237661) can1 18FEDF00#7DA0287D7DFFFFF0
(013.242222) can1 0CF00300#D10000FFFF0F6A7D
(013.242822) can1 0CF00A00#00000000FFFFFFFF
(013.243383) can1 0CF00203#C00000FFF7000003
(013.243982) can1 18FEF000#FFFFFFE015FFFFFF
(013.244572) can1 0CF00C03#00FB0000FFFFFFFF
(013.245141) can1 18F00E00#FFFFFFFFFFFFFFFF
(013.245702) can1 18F00503#7D00007D4E204E43
(013.246391) can1 18FE4A03#035F4FFFFFF3FFFF
(013.247308) can1 18F03300#FFFFFFFFFFFFFFFF
(013.248522) can1 0CF00400#0E7D7D0000000F7D
(013.249242) can1 0CF00331#FFFFFFFFFFFFFFFF
(013.252242) can1 18FCF200#FAFFFFFFFFFFFFFF
(013.252873) can1 0CF00203#C00000FFF7000003
(013.257634) can1 18FEDF00#7DA0287D7DFFFFF0
(013.258203) can1 18FDC600#FC04FFFFFFFFFFFF
(013.258803) can1 18F00F00#FFFFFFFFFFFFFFFF
(013.262272) can1 0CF00300#D10000FFFF0F6A7D
(013.262842) can1 0C010305#FFFFFFFFFFF3FFFF
(013.263402) can1 0CF00203#C00000FFF7000003
(013.263992) can1 18F0010B#CFFFF0FFFFDCFFFF
(013.264561) can1 0CF00C03#00FB0000FFFFFFFF
(013.265122) can1 18FEF100#FF0000FCFF6800CF
(013.268481) can1 0CF00400#0E7D7D0000000F7D
(013.269042) can1 1CEBFF29#022AD03A33804C2C
(013.272203) can1 10FDA300#FFFF3EFFFFFFFFFF
(013.272808) can1 18F00029#F07D7DF329FFFF3C
(013.273341) can1 0CF00203#C00000FFF7000003
(013.273943) can1 18FEBF0B#00007D7D7D7DFFFF
(013.277662) can1 18FEDF00#7DA0287D7DFFFFF0
(013.282262) can1 18FCDC00#9FFFFFFF9C680000
(013.282822) can1 0CF00300#D10000FFFF0F6A7D
(013.283381) can1 0CF00203#C00000FFF7000003
(013.283981) can1 1CFE9200#FF587DFFFFFF0000
(013.284563) can1 0CF00C03#00FB0000FFFFFFFF
(013.288482) can1 0CF00400#0E7D7D0000000F7D
(013.292202) can1 0CF00A00#00000000FFFFFFFF
(013.292802) can1 18FD9400#0000FFFFFFFFFFFF
(013.293361) can1 0CF00203#C00000FFF7000003
(013.293961) can1 18F00E00#FFFFFFFFFFFFFFFF
(013.297633) can1 18F03300#FFFFFFFFFFFFFFFF
(013.298201) can1 18FEDF00#7DA0287D7DFFFFF0
(013.299242) can1 18F00131#FFFFFF3F00FFFFFF
(013.299833) can1 18FEF131#F7FFFFC3CCFFFFF0
(013.300401) can1 18FEF031#FFFFFFFFFFFCCCFF
(013.301033) can1 18FF4831#0000FFFF00000000
(013.301602) can1 18FEF231#FFFFFFFFFFFFFFFF
(013.302201) can1 0CF00331#FFFFFFFFFFFFFFFF
(013.302761) can1 18FEE000#73490300BCE03300
(013.303363) can1 0CF00203#C00000FFF7000003
(013.303911) can1 0CF00300#D10000FFFF0F6A7D
(013.304481) can1 0CF00C03#00FB0000FFFFFFFF
(013.307282) can1 18FEF200#00000000AA08FAFF
(013.307881) can1 18F00F00#FFFFFFFFFFFFFFFF
(013.308561) can1 0CF00400#0E7D7D0000000F7D
(013.312712) can1 0C010305#FFFFFFFFFFF3FFFF
(013.313281) can1 0CF00203#C00000FFF7000003
(013.317633) can1 18FEDF00#7DA0287D7DFFFFF0
(013.318202) can1 10FCFD00#FFFFFFFF5951FFFF
(013.322273) can1 0CF00300#D10000FFFF0F6A7D
(013.322921) can1 0CF00203#C00000FFF7000003
(013.323562) can1 0CF00C03#00FB0000FFFFFFFF
(013.324521) can1 1CEBFF29#034051C2012AFFFF
(013.327242) can1 18F00100#FFFFFFFFFFFFFFFF
(013.328479) can1 0CF00400#0E7D7D0000000F7D
(013.332873) can1 0CF00203#C00000FFF7000003
(013.337682) can1 18FEDF00#7DA0287D7DFFFFF0
(013.342242) can1 0CF00300#D10000FFFF0F6A7D
(013.342842) can1 0CF00A00#00000000FFFFFFFF
(013.343401) can1 0CF00203#C00000FFF7000003
(013.344001) can1 18FEF000#FFFFFFE015FFFFFF
(013.344561) can1 0CF00C03#00FB0000FFFFFFFF
(013.345162) can1 18F00E00#FFFFFFFFFFFFFFFF
(013.345721) can1 18F00503#7D00007D4E204E43
(013.346321) can1 18FE4A03#035F4FFFFFF3FFFF
(013.347281) can1 18F03300#FFFFFFFFFFFFFFFF
(013.348552) can1 0CF00400#0E7D7D0000000F7D
(013.349271) can1 0CF00331#FFFFFFFFFFFFFFFF
(013.352241) can1 18FCF200#FAFFFFFFFFFFFFFF
(013.352871) can1 0CF00203#C00000FFF7000003
(013.357643) can1 18FEDF00#7DA0287D7DFFFFF0
(013.358232) can1 18F00F00#FFFFFFFFFFFFFFFF
(013.362283) can1 0CF00300#D10000FFFF0F6A7D
(013.362882) can1 0C010305#FFFFFFFFFFF3FFFF
(013.363472) can1 0CF00203#C00000FFF7000003
(013.364032) can1 18FEF100#FF0000FCFF6800CF
(013.364602) can1 0CF00C03#00FB0000FFFFFFFF
(013.365161) can1 18F0010B#CFFFF0FFFFDCFFFF
(013.368479) can1 0CF00400#0E7D7D0000000F7D
(013.372241) can1 10FDA300#FFFF36FFFFFFFFFF
(013.372802) can1 18F00029#F07D7DF329FFFF3C
(013.373393) can1 0CF00203#C00000FFF7000003
(013.374081) can1 18FEBF0B#00007D7D7D7DFFFF
(013.377681) can1 18FEDF00#7DA0287D7DFFFFF0
(013.382281) can1 18FCDC00#9FFFFFFF9C680000
(013.382841) can1 0CF00300#D10000FFFF0F6A7D
(013.383433) can1 0CF00203#C00000FFF7000003
(013.384002) can1 1CFE9200#FF607DFFFFFF0000
(013.384592) can1 0CF00C03#00FB0000FFFFFFFF
(013.388482) can1 0CF00400#0E7D7D0000000F7D
(013.392241) can1 0CF00A00#00000000FFFFFFFF
(013.392832) can1 18FD9400#0000FFFFFFFFFFFF
(013.393433) can1 0CF00203#C00000FFF7000003
(013.393993) can1 18F00E00#FFFFFFFFFFFFFFFF
(013.397649) can1 18F03300#FFFFFFFFFFFFFFFF
(013.398223) can1 18FEDF00#7DA0287D7DFFFFF0
(013.399263) can1 18F00131#FFFFFF3F00FFFFFF
(013.399822) can1 18FEF131#F7FFFFC3CCFFFFF0
(013.400422) can1 18FEF031#FFFFFFFFFFFCCCFF
(013.401023) can1 18FF4831#0000FFFF00000000
(013.401621) can1 18FEF231#FFFFFFFFFFFFFFFF
(013.402221) can1 0CF00331#FFFFFFFFFFFFFFFF
(013.402781) can1 18FEE000#73490300BCE03300
(013.403342) can1 0CF00203#C00000FFF7000003
(013.403901) can1 0CF00300#D10000FFFF0F6A7D
(013.404501) can1 0CF00C03#00FB0000FFFFFFFF
(013.407302) can1 18FEF200#00000000AA08FAFF
(013.407892) can1 18F00F00#FFFFFFFFFFFFFFFF
(013.408582) can1 0CF00400#0E7D7D0000000F7D
(013.412742) can1 0C010305#FFFFFFFFFFF3FFFF
(013.413302) can1 0CF00203#C00000FFF7000003
(013.417622) can1 18FEDF00#7DA0287D7DFFFFF0
(013.418252) can1 10FCFD00#FFFFFFFF8051FFFF
(013.418822) can1 0CFD9200#F0FFFFFFFFFFFFFF
(013.422262) can1 0CF00300#D10000FFFF0F6A7D
(013.422941) can1 0CF00203#C00000FFF7000003
(013.423542) can1 0CF00C03#00FB0000FFFFFFFF
(013.427262) can1 18F00100#FFFFFFFFFFFFFFFF
(013.428481) can1 0CF00400#0E7D7D0000000F7D
(013.432863) can1 0CF00203#C00000FFF7000003
(013.437703) can1 18FEDF00#7DA0287D7DFFFFF0
(013.442263) can1 0CF00300#D10000FFFF0F6A7D
(013.442853) can1 0CF00A00#00000000FFFFFFFF
(013.443452) can1 0CF00203#C00000FFF7000003
(013.444012) can1 18FEF000#FFFFFFE015FFFFFF
(013.444583) can1 0CF00C03#00FB0000FFFFFFFF
(013.445182) can1 18F00E00#FFFFFFFFFFFFFFFF
(013.445732) can1 18F00503#7D00007D4E204E43
(013.446343) can1 18FE4A03#035F4FFFFFF3FFFF
(013.447302) can1 18F03300#FFFFFFFFFFFFFFFF
(013.448562) can1 0CF00400#0E7D7D0000000F7D
(013.449242) can1 0CF00331#FFFFFFFFFFFFFFFF
(013.452242) can1 18FCF200#FAFFFFFFFFFFFFFF
(013.452873) can1 0CF00203#C00000FFF7000003
(013.457673) can1 18FEDF00#7DA0287D7DFFFFF0
(013.458273) can1 18F00F00#FFFFFFFFFFFFFFFF
(013.462308) can1 18FD0700#570CFCFFFFFFFFFF
(013.462882) can1 0C010305#FFFFFFFFFFF3FFFF
(013.463442) can1 0CF00203#C00000FFF7000003
(013.464003) can1 0CF00300#D10000FFFF0F6A7D
(013.464608) can1 0CF00C03#00FB0000FFFFFFFF
(013.465173) can1 18F0010B#CFFFF0FFFFDCFFFF
(013.465741) can1 18FEF100#FF0000FCFF6800CF
(013.468547) can1 0CF00400#0E7D7D0000000F7D
(013.472242) can1 10FDA300#FFFF2DFFFFFFFFFF
(013.472802) can1 18F00029#F07D7DF329FFFF3C
(013.473389) can1 0CF00203#C00000FFF7000003
(013.474313) can1 18FEBF0B#00007D7D7D7DFFFF
(013.477681) can1 18FEDF00#7DA0287D7DFFFFF0
(013.482282) can1 18FCDC00#9FFFFFFF9C680000
(013.482841) can1 0CF00300#D10000FFFF0F6A7D
(013.483402) can1 0CF00203#C00000FFF7000003
(013.484001) can1 1CFE9200#FF487DFFFFFF0000
(013.484589) can1 0CF00C03#00FB0000FFFFFFFF
(013.488512) can1 0CF00400#0E7D7D0000000F7D
(013.492232) can1 14FC9800#FF000000000000FF
(013.492802) can1 0CF00A00#00000000FFFFFFFF
(013.493393) can1 0CF00203#C00000FFF7000003
(013.493962) can1 18FD9400#0000FFFFFFFFFFFF
(013.494560) can1 18F00E00#FFFFFFFFFFFFFFFF
(013.497668) can1 18F03300#FFFFFFFFFFFFFFFF
(013.498233) can1 18FEDF00#7DA0287D7DFFFFF0
(013.499241) can1 18F00131#FFFFFF3F00FFFFFF
(013.499842) can1 18FEF131#F7FFFFC3CCFFFFF0
(013.500403) can1 18FEF031#FFFFFFFFFFFCCCFF
(013.501031) can1 18FF4831#0000FFFF00000000
(013.501631) can1 18FEF231#FFFFFFFFFFFFFFFF
(013.502230) can1 0CF00331#FFFFFFFFFFFFFFFF
(013.502791) can1 18FEE000#73490300BCE03300
(013.503361) can1 0CF00203#C00000FFF7000003
(013.503921) can1 0CF00300#D10000FFFF0F6A7D
(013.504483) can1 0CF00C03#00FB0000FFFFFFFF
(013.507283) can1 18FDB400#C3265925FFFFFFFF
(013.507842) can1 18FEF200#00000000AA08FAFF
(013.508442) can1 18F00F00#FFFFFFFFFFFFFFFF
(013.509033) can1 0CF00400#0E7D7D0000000F7D
(013.512752) can1 0C010305#FFFFFFFFFFF3FFFF
(013.513322) can1 0CF00203#C00000FFF7000003
(013.517642) can1 18FEDF00#7DA0287D7DFFFFF0
(013.518242) can1 10FCFD00#FFFFFFFF8051FFFF
(013.522282) can1 0CF00300#D10000FFFF0F6A7D
(013.522921) can1 0CF00203#C00000FFF7000003
(013.523561) can1 0CF00C03#00FB0000FFFFFFFF
(013.527273) can1 18F00100#FFFFFFFFFFFFFFFF
(013.528523) can1 0CF00400#0E7D7D0000000F7D
(013.532242) can1 18FDB300#FFFF6924FFFFFFFF
(013.532872) can1 0CF00203#C00000FFF7000003
(013.537713) can1 18FEDF00#7DA0287D7DFFFFF0
(013.542274) can1 0CF00300#D10000FFFF0F6A7D
(013.542871) can1 0CF00A00#00000000FFFFFFFF
(013.543441) can1 0CF00203#C00000FFF7000003
(013.544002) can1 18FEF000#FFFFFFE015FFFFFF
(013.544597) can1 0CF00C03#00FB0000FFFFFFFF
(013.545193) can1 18F00E00#FFFFFFFFFFFFFFFF
(013.545753) can1 18F00503#7D00007D4E204E43
(013.546362) can1 18FE4A03#035F4FFFFFF3FFFF
(013.547321) can1 18F03300#FFFFFFFFFFFFFFFF
(013.548562) can1 0CF00400#0E7D7D0000000F7D
(013.549271) can1 0CF00331#FFFFFFFFFFFFFFFF
(013.552242) can1 18FDB200#FFFFFFFF0600FFFF
(013.552842) can1 18FCF200#FAFFFFFFFFFFFFFF
(013.553431) can1 0CF00203#C00000FFF7000003
(013.557674) can1 18FEDF00#7DA0287D7DFFFFF0
(013.558243) can1 18F00F00#FFFFFFFFFFFFFFFF
(013.562281) can1 0CF00300#D10000FFFF0F6A7D
(013.562881) can1 0C010305#FFFFFFFFFFF3FFFF
(013.563442) can1 0CF00203#C00000FFF7000003
(013.564030) can1 18FEF100#FF0000FCFF6800CF
(013.564598) can1 0CF00C03#00FB0000FFFFFFFF
(013.565162) can1 18F0010B#CFFFF0FFFFDCFFFF
(013.568522) can1 0CF00400#0E7D7D0000000F7D
(013.572243) can1 10FDA300#FFFF27FFFFFFFFFF
(013.572831) can1 18F00029#F07D7DF329FFFF3C
(013.573402) can1 0CF00203#C00000FFF7000003
(013.574512) can1 18FEBF0B#00007D7D7D7DFFFF
(013.577682) can1 18FD8C00#FFFF0000FFFFFFFF
(013.578282) can1 18FEDF00#7DA0287D7DFFFFF0
(013.582321) can1 18FCDC00#9FFFFFFF9C680000
(013.582882) can1 0CF00203#C00000FFF7000003
(013.583442) can1 0CF00300#D10000FFFF0F6A7D
(013.584032) can1 0CF00C03#00FB0000FFFFFFFF
(013.584599) can1 1CFE9200#FF607DFFFFFF0000
(013.588522) can1 0CF00400#0E7D7D0000000F7D
(013.592271) can1 0CF00A00#00000000FFFFFFFF
(013.592868) can1 18FD9400#0000FFFFFFFFFFFF
(013.593433) can1 0CF00203#C00000FFF7000003
(013.594027) can1 18F00E00#FFFFFFFFFFFFFFFF
(013.597673) can1 18FD2000#C326FFFFFFFFFFFF
(013.598242) can1 18F03300#FFFFFFFFFFFFFFFF
(013.598833) can1 18FEDF00#7DA0287D7DFFFFF0
(013.599401) can1 18F00131#FFFFFF3F00FFFFFF
(013.599991) can1 18E0FF31#FAFFFFFFFFF0FFFF
(013.600562) can1 18FEF131#F7FFFFC3CCFFFFF0
(013.601141) can1 18FEF031#FFFFFFFFFFFCCCFF
(013.601733) can1 18FEFC31#FF33FFFFFFFF00FF
(013.602301) can1 18FEAE31#FFFF0501FFFFFFFF
(013.602862) can1 18FEE000#73490300BCE03300
(013.603451) can1 0CF00203#C00000FFF7000003
(013.604012) can1 0CF00300#D10000FFFF0F6A7D
(013.604593) can1 0CF00C03#00FB0000FFFFFFFF
(013.605160) can1 18FEF731#FFFFFFFFED00FFFF
(013.605762) can1 18FF4831#0000FFFF00000000
(013.606361) can1 18FD8331#F8FFFFFFFFFFFFFF
(013.606961) can1 18FEF831#FFFFFFFFFFFFFFFF
(013.607552) can1 18FEF200#00000000AA08FAFF
(013.608121) can1 18F00F00#FFFFFFFFFFFFFFFF
(013.608712) can1 18FEF231#FFFFFFFFFFFFFFFF
(013.609282) can1 0CF00400#0E7D7D0000000F7D
(013.609842) can1 18FEFA31#FF0902FFFFFFFFFF
(013.610442) can1 18FEC131#5FF21005FFFFFFFF
(013.611041) can1 0CF00331#FFFFFFFFFFFFFFFF
(013.612723) can1 0C010305#FFFFFFFFFFF3FFFF
(013.613312) can1 0CF00203#C00000FFF7000003
(013.617672) can1 18FEDF00#7DA0287D7DFFFFF0
(013.618241) can1 10FCFD00#FFFFFFFF8051FFFF
(013.622295) can1 18FD3E00#4C24FF6924FFFFFF
(013.622842) can1 0CF00300#D10000FFFF0F6A7D
(013.623432) can1 0CF00203#C00000FFF7000003
(013.624040) can1 0CF00C03#00FB0000FFFFFFFF
(013.627283) can1 18F00100#FFFFFFFFFFFFFFFF
(013.628522) can1 0CF00400#0E7D7D0000000F7D
(013.632873) can1 0CF00203#C00000FFF7000003
(013.637722) can1 18FEDF00#7DA0287D7DFFFFF0
(013.642281) can1 18FD4000#FF3F00FFFFFFFFFF
(013.642871) can1 0CF00300#D10000FFFF0F6A7D
(013.643441) can1 0CF00203#C00000FFF7000003
(013.644030) can1 0CF00A00#00000000FFFFFFFF
(013.644597) can1 0CF00C03#00FB0000FFFFFFFF
(013.645192) can1 18FEF000#FFFFFFE015FFFFFF
(013.645751) can1 18F00503#7D00007D4E204E43
(013.646321) can1 18F00E00#FFFFFFFFFFFFFFFF
(013.646911) can1 18FE4A03#035F4FFFFFF3FFFF
(013.647483) can1 18F03300#FFFFFFFFFFFFFFFF
(013.648072) can1 18FD9503#CCFFFFBBFFFFFFFF
(013.648641) can1 0CF00400#0E7D7D0000000F7D
(013.649203) can1 18FEF803#FFFFFFFF1424FFFF
(013.649832) can1 0CF00331#FFFFFFFFFFFFFFFF
(013.652390) can1 18FCF200#FAFFFFFFFFFFFFFF
(013.652953) can1 0CF00203#C00000FFF7000003
(013.657708) can1 18FEDF00#7DA0287D7DFFFFF0
(013.658272) can1 18F00F00#FFFFFFFFFFFFFFFF
(013.662303) can1 0CF00300#D10000FFFF0F6A7D
(013.662902) can1 0C010305#FFFFFFFFFFF3FFFF
(013.663462) can1 0CF00203#C00000FFF7000003
(013.664021) can1 18FEF100#FF0000FCFF6800CF
(013.664603) can1 0CF00C03#00FB0000FFFFFFFF
(013.665192) can1 18F0010B#CFFFF0FFFFDCFFFF
(013.667312) can1 18FCC500#4C24FFFFFFFFFFFF
(013.667872) can1 0CFD9200#F0FFFFFFFFFFFFFF
(013.668561) can1 0CF00400#0E7D7D0000000F7D
(013.672272) can1 10FDA300#FFFF26FFFFFFFFFF
(013.672833) can1 18F00029#F07D7DF329FFFF3C
(013.673402) can1 0CF00203#C00000FFF7000003
(013.674023) can1 18FECA03#00FF00000000FFFF
(013.674732) can1 18FEBF0B#00007D7D7D7DFFFF
(013.677743) can1 18FEDF00#7DA0287D7DFFFFF0
(013.682332) can1 18FCDC00#9FFFFFFF9C680000
(013.682888) can1 0CF00203#C00000FFF7000003
(013.683451) can1 0CF00300#D10000FFFF0F6A7D
(013.684021) can1 0CF00C03#00FB0000FFFFFFFF
(013.684636) can1 1CFE9200#FF587DFFFFFF0000
(013.688523) can1 0CF00400#0E7D7D0000000F7D
(013.692274) can1 0CF00A00#00000000FFFFFFFF
(013.692841) can1 18FD9400#0000FFFFFFFFFFFF
(013.693433) can1 0CF00203#C00000FFF7000003
(013.694001) can1 18FEEF00#FFFFFF00FF7CFFFA
(013.694633) can1 18F00E00#FFFFFFFFFFFFFFFF
(013.697682) can1 18F03300#FFFFFFFFFFFFFFFF
(013.698282) can1 18FEDF00#7DA0287D7DFFFFF0
(013.699242) can1 18F00131#FFFFFF3F00FFFFFF
(013.699842) can1 18FEF131#F7FFFFC3CCFFFFF0
(013.700432) can1 18FEF031#FFFFFFFFFFFCCCFF
(013.701032) can1 18FF4831#0000FFFF00000000
(013.701631) can1 18FEF231#FFFFFFFFFFFFFFFF
(013.702202) can1 0CF00331#FFFFFFFFFFFFFFFF
(013.702762) can1 18FEE000#73490300BCE03300
(013.703352) can1 0CF00203#C00000FFF7000003
(013.703921) can1 0CF00300#D10000FFFF0F6A7D
(013.704482) can1 0CF00C03#00FB0000FFFFFFFF
(013.707322) can1 18FEF200#00000000AA08FAFF
(013.707922) can1 18F00F00#FFFFFFFFFFFFFFFF
(013.708602) can1 0CF00400#0E7D7D0000000F7D
(013.712282) can1 18FEDB00#FFFF8A00FFFFFFFF
(013.712873) can1 0C010305#FFFFFFFFFFF3FFFF
(013.713441) can1 0CF00203#C00000FFF7000003
(013.717682) can1 18FEDF00#7DA0287D7DFFFFF0
(013.718282) can1 10FCFD00#FFFFFFFF8051FFFF
(013.722312) can1 0CF00300#D10000FFFF0F6A7D
(013.722881) can1 0CF00203#C00000FFF7000003
(013.723481) can1 0CF00C03#00FB0000FFFFFFFF
(013.727282) can1 18F00100#FFFFFFFFFFFFFFFF
(013.728551) can1 0CF00400#0E7D7D0000000F7D
(013.732282) can1 18FEF600#FF0039FFFFFFFFFF
(013.732872) can1 0CF00203#C00000FFF7000003
(013.737752) can1 18FEDF00#7DA0287D7DFFFFF0
(013.742281) can1 0CF00300#D10000FFFF0F6A7D
(013.742881) can1 0CF00A00#00000000FFFFFFFF
(013.743471) can1 0CF00203#C00000FFF7000003
(013.744040) can1 18FEF000#FFFFFFE015FFFFFF
(013.744633) can1 0CF00C03#00FB0000FFFFFFFF
(013.745202) can1 18F00E00#FFFFFFFFFFFFFFFF
(013.745761) can1 18F00503#7D00007D4E204E43
(013.746393) can1 18FE4A03#031F4FFFFFF3FFFF
(013.747322) can1 18F03300#FFFFFFFFFFFFFFFF
(013.748593) can1 0CF00400#0E7D7D0000000F7D
(013.749274) can1 0CF00331#FFFFFFFFFFFFFFFF
(013.752313) can1 18FCF200#FAFFFFFFFFFFFFFF
(013.752881) can1 0CF00203#C00000FFF7000003
(013.757683) can1 18FEDF00#7DA0287D7DFFFFF0
(013.758282) can1 18FDC600#FC04FFFFFFFFFFFF
(013.758872) can1 18F00F00#FFFFFFFFFFFFFFFF
(013.762323) can1 0CF00300#D10000FFFF0F6A7D
(013.762911) can1 0C010305#FFFFFFFFFFF3FFFF
(013.763482) can1 0CF00203#C00000FFF7000003
(013.764041) can1 18FEF100#FF0000FCFF6800CF
(013.764633) can1 0CF00C03#00FB0000FFFFFFFF
(013.765193) can1 18F0010B#CFFFF0FFFFDCFFFF
(013.768553) can1 0CF00400#0E7D7D0000000F7D
(013.772283) can1 10FDA300#FFFF26FFFFFFFFFF
(013.772842) can1 18F00029#F07D7DF329FFFF3C
(013.773434) can1 0CF00203#C00000FFF7000003
(013.774963) can1 18FEBF0B#00007D7D7D7DFFFF
(013.777753) can1 18FEDF00#7DA0287D7DFFFFF0
(013.782322) can1 18FCDC00#9FFFFFFF9C680000
(013.782912) can1 0CF00203#C00000FFF7000003
(013.783481) can1 0CF00300#D10000FFFF0F6A7D
(013.784041) can1 0CF00C03#00FB0000FFFFFFFF
(013.784634) can1 1CFE9200#FF547DFFFFFF0000
(013.785202) can1 18FECA0B#04FF00000000FFFF
(013.788593) can1 0CF00400#0E7D7D0000000F7D
(013.792282) can1 0CF00A00#00000000FFFFFFFF
(013.792882) can1 18FD9400#0000FFFFFFFFFFFF
(013.793441) can1 0CF00203#C00000FFF7000003
(013.794042) can1 18F00E00#FFFFFFFFFFFFFFFF
(013.797682) can1 18F03300#FFFFFFFFFFFFFFFF
(013.798281) can1 18FEDF00#7DA0287D7DFFFFF0
(013.799273) can1 18F00131#FFFFFF3F00FFFFFF
(013.799842) can1 18FEF131#F7FFFFC3CCFFFFF0
(013.800442) can1 18FEF031#FFFFFFFFFFFCCCFF
(013.801040) can1 18FF4831#0000FFFF00000000
(013.801642) can1 18FEF231#FFFFFFFFFFFFFFFF
(013.802233) can1 0CF00331#FFFFFFFFFFFFFFFF
(013.802801) can1 18FEF700#FFFFFFFFED00FFFF
(013.803390) can1 0CF00203#C00000FFF7000003
(013.803952) can1 18FEE000#73490300BCE03300
(013.804522) can1 0CF00C03#00FB0000FFFFFFFF
(013.805081) can1 0CF00300#D10000FFFF0F6A7D
(013.807322) can1 18FEF200#00000000AB08FAFF
(013.807922) can1 18F00F00#FFFFFFFFFFFFFFFF
(013.808632) can1 0CF00400#0E7D7D0000000F7D
(013.812762) can1 0C010305#FFFFFFFFFFF3FFFF
(013.813321) can1 0CF00203#C00000FFF7000003
(013.817682) can1 18FEDF00#7DA0287D7DFFFFF0
(013.818281) can1 10FCFD00#FFFFFFFF8051FFFF
(013.822311) can1 18FEC100#5FF210054F2C5200
(013.822881) can1 0CF00203#C00000FFF7000003
(013.823441) can1 0CF00300#D10000FFFF0F6A7D
(013.824031) can1 0CF00C03#00FB0000FFFFFFFF
(013.827312) can1 18F00100#FFFFFFFFFFFFFFFF
(013.828553) can1 0CF00400#0E7D7D0000000F7D
(013.832881) can1 0CF00203#C00000FFF7000003
(013.837753) can1 18FEDF00#7DA0287D7DFFFFF0
(013.842321) can1 0CF00300#D10000FFFF0F6A7D
(013.842881) can1 0CF00203#C00000FFF7000003
(013.843481) can1 0CF00A00#00000000FFFFFFFF
(013.844073) can1 0CF00C03#00FB0000FFFFFFFF
(013.844641) can1 18FEF000#FFFFFFE015FFFFFF
(013.845202) can1 18F00503#7D00007D4E204E43
(013.845793) can1 18F00E00#FFFFFFFFFFFFFFFF
(013.846361) can1 18FE4A03#031F4FFFFFF3FFFF
(013.847323) can1 18FE5600#9735FFFF1F1F00FF
(013.847921) can1 18F03300#FFFFFFFFFFFFFFFF
(013.848641) can1 0CF00400#0E7D7D0000000F7D
(013.849272) can1 0CF00331#FFFFFFFFFFFFFFFF
(013.852312) can1 18FCF200#FAFFFFFFFFFFFFFF
(013.852881) can1 0CF00203#C00000FFF7000003
(013.857722) can1 18FEDF00#7DA0287D7DFFFFF0
(013.858314) can1 18F00F00#FFFFFFFFFFFFFFFF
(013.862322) can1 0CF00300#D10000FFFF0F6A7D
(013.862922) can1 0C010305#FFFFFFFFFFF3FFFF
(013.863481) can1 0CF00203#C00000FFF7000003
(013.864068) can1 18FEF100#FF0000FCFF6800CF
(013.864642) can1 0CF00C03#00FB0000FFFFFFFF
(013.865202) can1 18F0010B#CFFFF0FFFFDCFFFF
(013.867322) can1 18FD7B00#00FFE67700008237
(013.868593) can1 0CF00400#0E7D7D0000000F7D
(013.872312) can1 10FDA300#FFFF26FFFFFFFFFF
(013.872908) can1 0CF00203#C00000FFF7000003
(013.873442) can1 18F00029#F07D7DF329FFFF3C
(013.875192) can1 18FEBF0B#00007D7D7D7DFFFF
(013.877722) can1 18FEDF00#7DA0287D7DFFFFF0
(013.882347) can1 18FCDC00#9FFFFFFF9C680000
(013.882921) can1 0CF00203#C00000FFF7000003
(013.883481) can1 0CF00300#D10000FFFF0F6A7D
(013.884042) can1 0CF00C03#00FB0000FFFFFFFF
(013.884668) can1 1CFE9200#FF5C7DFFFFFF0000
(013.888562) can1 0CF00400#0E7D7D0000000F7D
(013.892282) can1 0CF00A00#00000000FFFFFFFF
(013.892881) can1 0CF00203#C00000FFF7000003
(013.893441) can1 18FD9400#0000FFFFFFFFFFFF
(013.894041) can1 18FEDD00#FF0000FFFFFFFFFF
(013.894641) can1 18F00E00#FFFFFFFFFFFFFFFF
(013.897713) can1 18F03300#FFFFFFFFFFFFFFFF
(013.898282) can1 18FEDF00#7DA0287D7DFFFFF0
(013.899272) can1 18F00131#FFFFFF3F00FFFFFF
(013.899842) can1 18FEF131#F7FFFFC3CCFFFFF0
(013.900432) can1 18FEF031#FFFFFFFFFFFCCCFF
(013.901041) can1 18FF4831#0000FFFF00000000
(013.901632) can1 18FEF231#FFFFFFFFFFFFFFFF
(013.902231) can1 0CF00331#FFFFFFFFFFFFFFFF
(013.902791) can1 18FEE000#73490300BCE03300
(013.903361) can1 0CF00203#C00000FFF7000003
(013.903921) can1 0CF00300#D10000FFFF0F6A7D
(013.904512) can1 0CF00C03#00FB0000FFFFFFFF
(013.907362) can1 18FEF200#00000000AA08FAFF
(013.907952) can1 18F00F00#FFFFFFFFFFFFFFFF
(013.908633) can1 0CF00400#0E7D7D0000000F7D
(013.912350) can1 18FEE400#FF3FFCFD007FFFFF
(013.912881) can1 0C010305#FFFFFFFFFFF3FFFF
(013.913472) can1 0CF00203#C00000FFF7000003
(013.917722) can1 18FEDF00#7DA0287D7DFFFFF0
(013.918312) can1 10FCFD00#FFFFFFFF8051FFFF
(013.918881) can1 0CFD9200#F0FFFFFFFFFFFFFF
(013.922321) can1 0CF00300#D10000FFFF0F6A7D
(013.922912) can1 0CF00203#C00000FFF7000003
(013.923521) can1 0CF00C03#00FB0000FFFFFFFF
(013.927321) can1 18F00100#FFFFFFFFFFFFFFFF
(013.928562) can1 0CF00400#0E7D7D0000000F7D
(013.932872) can1 0CF00203#C00000FFF7000003
(013.937761) can1 18FEDF00#7DA0287D7DFFFFF0
(013.942321) can1 0CF00300#D10000FFFF0F6A7D
(013.942911) can1 0CF00203#C00000FFF7000003
(013.943481) can1 0CF00A00#00000000FFFFFFFF
(013.944081) can1 0CF00C03#00FB0000FFFFFFFF
(013.944668) can1 18FEF000#FFFFFFE015FFFFFF
(013.945202) can1 18F00503#7D00007D4E204E43
(013.945801) can1 18FEBD00#00F0FFFFFFFFFFFF
(013.946392) can1 18F00E00#FFFFFFFFFFFFFFFF
(013.946962) can1 18FE4A03#031F4FFFFFF3FFFF
(013.947553) can1 18F03300#FFFFFFFFFFFFFFFF
(013.948632) can1 0CF00400#0E7D7D0000000F7D
(013.949272) can1 0CF00331#FFFFFFFFFFFFFFFF
(013.949872) can1 18FECA31#00FF00000000FFFF
(013.952392) can1 18FCF200#FAFFFFFFFFFFFFFF
(013.952961) can1 0CF00203#C00000FFF7000003
(013.957722) can1 18FEDF00#7DA0287D7DFFFFF0
(013.958322) can1 18E0FF00#00FFFFFFFFFFFFFF
(013.958922) can1 18F00F00#FFFFFFFFFFFFFFFF
(013.962362) can1 18FD0700#470CFCFFFFFFFFFF
(013.962961) can1 0C010305#FFFFFFFFFFF3FFFF
(013.963553) can1 0CF00203#C00000FFF7000003
(013.964081) can1 0CF00300#D10000FFFF0F6A7D
(013.964683) can1 0CF00C03#00FB0000FFFFFFFF
(013.965242) can1 18FEF100#FF0000FCFF6800CF
(013.965802) can1 18F0010B#CFFFF0FFFFDCFFFF
(013.967353) can1 18FEEE00#37FFFFFFFFFFFFFF
(013.968602) can1 0CF00400#0E7D7D0000000F7D
(013.972471) can1 10FDA300#FFFF26FFFFFFFFFF
(013.972883) can1 0CF00203#C00000FFF7000003
(013.973474) can1 18F00029#F07D7DF329FFFF3C
(013.975402) can1 18FEBF0B#00007D7D7D7DFFFF
(013.977762) can1 18FEDF00#7DA0287D7DFFFFF0
(013.982361) can1 18FCDC00#9FFFFFFF9C680000
(013.982921) can1 0CF00203#C00000FFF7000003
(013.983511) can1 0CF00300#D10000FFFF0F6A7D
(013.984081) can1 0CF00C03#00FB0000FFFFFFFF
(013.984668) can1 1CFE9200#FF647DFFFFFF0000
(013.985231) can1 18FEF500#AAFFFF4F25FFFFFF
(013.988563) can1 0CF00400#0E7D7D0000000F7D
(013.992282) can1 14FC9800#FF000000000000FF
(013.992881) can1 0CF00A00#00000000FFFFFFFF
(013.993472) can1 0CF00203#C00000FFF7000003
(013.994042) can1 18FD9400#0000FFFFFFFFFFFF
(013.994641) can1 18F00E00#FFFFFFFFFFFFFFFF
(013.997721) can1 18F03300#FFFFFFFFFFFFFFFF
(013.998312) can1 18FEDF00#7DA0287D7DFFFFF0
(013.999272) can1 18F00131#FFFFFF3F00FFFFFF
(013.999841) can1 18FEF131#F7FFFFC3CCFFFFF0
(014.000442) can1 18FEF031#FFFFFFFFFFFCCCFF
(014.001041) can1 18F11031#0000FFFFFFFFFFFF
(014.001641) can1 18FF4831#0000FFFF00000000
(014.002241) can1 18FEF231#FFFFFFFFFFFFFFFF
(014.002801) can1 18FEE000#73490300BCE03300
(014.003361) can1 0CF00203#C00000FFF7000003
(014.003921) can1 0CF00300#D10000FFFF0F6A7D
(014.004513) can1 0CF00331#FFFFFFFFFFFFFFFF
(014.005081) can1 0CF00C03#00FB0000FFFFFFFF
(014.005670) can1 18FEA400#FFFF1D24FFFF3B24
(014.007362) can1 18FDB400#C3265925FFFFFFFF
(014.007961) can1 18FEF200#00000000AA08FAFF
(014.008552) can1 18F00F00#FFFFFFFFFFFFFFFF
(014.009122) can1 0CF00400#0E7D7D0000000F7D
(014.012762) can1 0C010305#FFFFFFFFFFF3FFFF
(014.013352) can1 0CF00203#C00000FFF7000003
(014.017722) can1 18FEDF00#7DA0287D7DFFFFF0
(014.018312) can1 10FCFD00#FFFFFFFF8051FFFF
(014.022352) can1 0CF00300#D10000FFFF0F6A7D
(014.022921) can1 0CF00203#C00000FFF7000003
(014.023523) can1 0CF00C03#00FB0000FFFFFFFF
(014.027322) can1 18FD7C00#F8830100C31F03FF
(014.027908) can1 18F00100#FFFFFFFFFFFFFFFF
(014.028602) can1 0CF00400#0E7D7D0000000F7D
(014.032312) can1 18FDB300#FFFF6924FFFFFFFF
(014.032882) can1 0CF00203#C00000FFF7000003
(014.037761) can1 18FEDF00#7DA0287D7DFFFFF0
(014.042321) can1 0CF00300#D10000FFFF0F6A7D
(014.042913) can1 0CF00203#C00000FFF7000003
(014.043481) can1 0CF00A00#00000000FFFFFFFF
(014.044081) can1 0CF00C03#00FB0000FFFFFFFF
(014.044673) can1 18FEF000#FFFFFFE015FFFFFF
(014.045202) can1 18F00503#7D00007D4E204E43
(014.045802) can1 18F00E00#FFFFFFFFFFFFFFFF
(014.046363) can1 18FE4A03#031F4FFFFFF3FFFF
(014.047361) can1 18F03300#FFFFFFFFFFFFFFFF
(014.047961) can1 18FE9A00#7724FFFFFFFFFFFF
(014.048682) can1 0CF00400#0E7D7D0000000F7D
(014.049281) can1 0CF00331#FFFFFFFFFFFFFFFF
(014.052350) can1 18FDB200#FFFFFFFF0600FFFF
(014.052881) can1 0CF00203#C00000FFF7000003
(014.053481) can1 18FCF200#FAFFFFFFFFFFFFFF
(014.057722) can1 18FEDF00#7DA0287D7DFFFFF0
(014.058323) can1 18F00F00#FFFFFFFFFFFFFFFF
(014.062362) can1 0CF00300#D10000FFFF0F6A7D
(014.062953) can1 0C010305#FFFFFFFFFFF3FFFF
(014.063521) can1 0CF00203#C00000FFF7000003
(014.064081) can1 18FEF100#FF0000FCFF6800CF
(014.064673) can1 0CF00C03#00FB0000FFFFFFFF
(014.065603) can1 18F0010B#CFFFF0FFFFDCFFFF
(014.068563) can1 0CF00400#0E7D7D0000000F7D
(014.072351) can1 10FDA300#FFFF26FFFFFFFFFF
(014.072881) can1 0CF00203#C00000FFF7000003
(014.073481) can1 18FE9900#FFFFFFFFFFFFFFFF
(014.074041) can1 18F00029#F07D7DF329FFFF3C
(014.075641) can1 18FEBF0B#00007D7D7D7DFFFF
(014.077761) can1 18FD8C00#FFFF0000FFFFFFFF
(014.078322) can1 18FEDF00#7DA0287D7DFFFFF0
(014.082361) can1 18FCDC00#9FFFFFFF9C680000
(014.082921) can1 0CF00203#C00000FFF7000003
(014.083481) can1 0CF00300#D10000FFFF0F6A7D
(014.084081) can1 0CF00C03#00FB0000FFFFFFFF
(014.084642) can1 1CFE9200#FF587DFFFFFF0000
(014.088592) can1 0CF00400#0E7D7D0000000F7D
(014.092350) can1 0CF00A00#00000000FFFFFFFF
(014.092881) can1 0CF00203#C00000FFF7000003
(014.093482) can1 18FD9400#0000FFFFFFFFFFFF
(014.094073) can1 18FEFC00#FFFFFFFFFFFFFFFF
(014.094643) can1 18F00E00#FFFFFFFFFFFFFFFF
(014.097721) can1 18FD2000#C326FFFFFFFFFFFF
(014.098321) can1 18F03300#FFFFFFFFFFFFFFFF
(014.098912) can1 18FEDF00#7DA0287D7DFFFFF0
(014.099481) can1 18F00131#FFFFFF3F00FFFFFF
(014.100042) can1 18FEF131#F7FFFFC3CCFFFFF0
(014.100641) can1 18FEF031#FFFFFFFFFFFCCCFF
(014.101241) can1 18FF4831#0000FFFF00000000
(014.101841) can1 18FEF231#FFFFFFFFFFFFFFFF
(014.102441) can1 0CF00331#FFFFFFFFFFFFFFFF
(014.103001) can1 0CF00203#C00000FFF7000003
(014.103561) can1 18FEE000#73490300BCE03300
(014.104121) can1 0CF00300#D10000FFFF0F6A7D
(014.104723) can1 0CF00C03#00FB0000FFFFFFFF
(014.107392) can1 18FEF200#00000000AA08FAFF
(014.107962) can1 18F00F00#FFFFFFFFFFFFFFFF
(014.108673) can1 0CF00400#0E7D7D0000000F7D
(014.112802) can1 0C010305#FFFFFFFFFFF3FFFF
(014.113361) can1 0CF00203#C00000FFF7000003
(014.117752) can1 18FEDF00#7DA0287D7DFFFFF0
(014.118322) can1 10FCFD00#FFFFFFFF9051FFFF
(014.122353) can1 18FD3E00#4C24FF7024FFFFFF
(014.122922) can1 0CF00203#C00000FFF7000003
(014.123481) can1 0CF00300#D10000FFFF0F6A7D
(014.124072) can1 0CF00C03#00FB0000FFFFFFFF
(014.127352) can1 18F00100#FFFFFFFFFFFFFFFF
(014.128591) can1 0CF00400#0E7D7D0000000F7D
(014.132883) can1 0CF00203#C00000FFF7000003
(014.137763) can1 18FEDF00#7DA0287D7DFFFFF0
(014.142361) can1 18FD4000#FF3F00FFFFFFFFFF
(014.142919) can1 0CF00203#C00000FFF7000003
(014.143481) can1 0CF00300#D10000FFFF0F6A7D
(014.144081) can1 0CF00A00#00000000FFFFFFFF
(014.144673) can1 0CF00C03#00FB0000FFFFFFFF
(014.145272) can1 18FEF000#FFFFFFE015FFFFFF
(014.145802) can1 18F00503#7D00007D4E204E43
(014.146401) can1 18F00E00#FFFFFFFFFFFFFFFF
(014.146961) can1 18FE4A03#031F4FFFFFF3FFFF
(014.147561) can1 18FECA00#03FF00000000FFFF
(014.148152) can1 18F03300#FFFFFFFFFFFFFFFF
(014.148721) can1 0CF00400#0E7D7D0000000F7D
(014.149311) can1 0CF00331#FFFFFFFFFFFFFFFF
(014.152392) can1 18FCF200#FAFFFFFFFFFFFFFF
(014.152988) can1 0CF00203#C00000FFF7000003
(014.157752) can1 18FEDF00#7DA0287D7DFFFFF0
(014.158322) can1 18F00F00#FFFFFFFFFFFFFFFF
(014.162362) can1 0CF00300#D10000FFFF0F6A7D
(014.162963) can1 0C010305#FFFFFFFFFFF3FFFF
(014.163522) can1 0CF00203#C00000FFF7000003
(014.164082) can1 18FEF100#FF0000FCFF6800CF
(014.164682) can1 0CF00C03#00FB0000FFFFFFFF
(014.165832) can1 18F0010B#CFFFF0FFFFDCFFFF
(014.167352) can1 18FCC500#4C24FFFFFFFFFFFF
(014.167922) can1 0CFD9200#F0FFFFFFFFFFFFFF
(014.168641) can1 0CF00400#0E7D7D0000000F7D
(014.172351) can1 10FDA300#FFFF26FFFFFFFFFF
(014.172912) can1 0CF00203#C00000FFF7000003
(014.173472) can1 18F00029#F07D7DF329FFFF3C
(014.175842) can1 18FEBF0B#00007D7D7D7DFFFF
(014.177802) can1 18FEDF00#7DA0287D7DFFFFF0
(014.182393) can1 18FCDC00#9FFFFFFF9C680000
(014.182962) can1 0CF00203#C00000FFF7000003
(014.183521) can1 0CF00300#D10000FFFF0F6A7D
(014.184112) can1 0CF00C03#00FB0000FFFFFFFF
(014.184683) can1 1CFE9200#FF5C7DFFFFFF0000
(014.188602) can1 0CF00400#0E7D7D0000000F7D
(014.192351) can1 0CF00A00#00000000FFFFFFFF
(014.192912) can1 0CF00203#C00000FFF7000003
(014.193481) can1 18FD9400#0000FFFFFFFFFFFF
(014.194073) can1 18FEEF00#FFFFFF00FF7CFFFA
(014.194643) can1 18F00E00#FFFFFFFFFFFFFFFF
(014.197762) can1 18F03300#FFFFFFFFFFFFFFFF
(014.198352) can1 18FEDF00#7DA0287D7DFFFFF0
(014.199282) can1 18F00131#FFFFFF3F00FFFFFF
(014.199841) can1 18FEF131#F7FFFFC3CCFFFFF0
(014.200441) can1 18FEF031#FFFFFFFFFFFCCCFF
(014.201041) can1 18FF4831#0000FFFF00000000
(014.201641) can1 18FEF231#FFFFFFFFFFFFFFFF
(014.202232) can1 0CF00331#FFFFFFFFFFFFFFFF
(014.202792) can1 18FEE000#73490300BCE03300
(014.203361) can1 0CF00203#C00000FFF7000003
(014.203921) can1 0CF00300#D10000FFFF0F6A7D
(014.204513) can1 0CF00C03#00FB0000FFFFFFFF
(014.207400) can1 18FEF200#00000000AA08FAFF
(014.207992) can1 18F00F00#FFFFFFFFFFFFFFFF
(014.208681) can1 0CF00400#0E7D7D0000000F7D
(014.212359) can1 18FEDB00#FFFF7D00FFFFFFFF
(014.212951) can1 0C010305#FFFFFFFFFFF3FFFF
(014.213521) can1 0CF00203#C00000FFF7000003
(014.217753) can1 18FEDF00#7DA0287D7DFFFFF0
(014.218321) can1 10FCFD00#FFFFFFFF9051FFFF
(014.222392) can1 0CF00300#D10000FFFF0F6A7D
(014.222952) can1 0CF00203#C00000FFF7000003
(014.223561) can1 0CF00C03#00FB0000FFFFFFFF
(014.227392) can1 18F00100#FFFFFFFFFFFFFFFF
(014.228602) can1 0CF00400#0E7D7D0000000F7D
(014.232392) can1 18FEF600#FF0039FFFFFFFFFF
(014.232921) can1 0CF00203#C00000FFF7000003
(014.237802) can1 18FEDF00#7DA0287D7DFFFFF0
(014.242362) can1 0CF00300#D10000FFFF0F6A7D
(014.242921) can1 0CF00203#C00000FFF7000003
(014.243521) can1 0CF00A00#00000000FFFFFFFF
(014.244110) can1 0CF00C03#00FB0000FFFFFFFF
(014.244708) can1 18FEF000#FFFFFFE015FFFFFF
(014.245243) can1 18F00503#7D00007D4E204E43
(014.245842) can1 18F00E00#FFFFFFFFFFFFFFFF
(014.246402) can1 18FE4A03#031F4FFFFFF3FFFF
(014.247409) can1 18F03300#FFFFFFFFFFFFFFFF
(014.248663) can1 0CF00400#0E7D7D0000000F7D
(014.249261) can1 0CF00331#FFFFFFFFFFFFFFFF
(014.252360) can1 18FCF200#FAFFFFFFFFFFFFFF
(014.252923) can1 0CF00203#C00000FFF7000003
(014.257788) can1 18FEDF00#7DA0287D7DFFFFF0
(014.258322) can1 18FDC600#FC04FFFFFFFFFFFF
(014.258922) can1 18F00F00#FFFFFFFFFFFFFFFF
(014.262394) can1 0CF00300#D10000FFFF0F6A7D
(014.262961) can1 0C010305#FFFFFFFFFFF3FFFF
(014.263551) can1 0CF00203#C00000FFF7000003
(014.264112) can1 18FEF100#FF0000FCFF6800CF
(014.264713) can1 0CF00C03#00FB0000FFFFFFFF
(014.266033) can1 18F0010B#CFFFF0FFFFDCFFFF
(014.268603) can1 0CF00400#0E7D7D0000000F7D
(014.272352) can1 10FDA300#FFFF26FFFFFFFFFF
(014.272922) can1 0CF00203#C00000FFF7000003
(014.273481) can1 18F00029#F07D7DF329FFFF3C
(014.276082) can1 18FEBF0B#00007D7D7D7DFFFF
(014.277792) can1 18FEDF00#7DA0287D7DFFFFF0
(014.282394) can1 18FCDC00#9FFFFFFF9C680000
(014.282961) can1 0CF00203#C00000FFF7000003
(014.283521) can1 0CF00300#D10000FFFF0F6A7D
(014.284110) can1 0CF00C03#00FB0000FFFFFFFF
(014.284713) can1 1CFE9200#FF5C7DFFFFFF0000
(014.288602) can1 0CF00400#0E7D7D0000000F7D
(014.292352) can1 0CF00A00#00000000FFFFFFFF
(014.292923) can1 0CF00203#C00000FFF7000003
(014.293511) can1 18FD9400#0000FFFFFFFFFFFF
(014.294082) can1 18F00E00#FFFFFFFFFFFFFFFF
(014.297762) can1 18F03300#FFFFFFFFFFFFFFFF
(014.298322) can1 18FEDF00#7DA0287D7DFFFFF0
(014.299273) can1 18F00131#FFFFFF3F00FFFFFF
(014.299842) can1 18FEF131#F7FFFFC3CCFFFFF0
(014.300441) can1 18FEF031#FFFFFFFFFFFCCCFF
(014.301041) can1 18FF4831#0000FFFF00000000
(014.301641) can1 18FEF231#FFFFFFFFFFFFFFFF
(014.302233) can1 0CF00331#FFFFFFFFFFFFFFFF
(014.302792) can1 18FEE000#73490300BCE03300
(014.303361) can1 0CF00203#C00000FFF7000003
(014.303921) can1 0CF00300#D10000FFFF0F6A7D
(014.304512) can1 0CF00C03#00FB0000FFFFFFFF
(014.307402) can1 18FEF200#00000000AA08FAFF
(014.308002) can1 18F00F00#FFFFFFFFFFFFFFFF
(014.308711) can1 0CF00400#0E7D7D0000000F7D
(014.312832) can1 0C010305#FFFFFFFFFFF3FFFF
(014.313402) can1 0CF00203#C00000FFF7000003
(014.317762) can1 18FEDF00#7DA0287D7DFFFFF0
(014.318352) can1 10FCFD00#FFFFFFFF9051FFFF
(014.322393) can1 0CF00300#D10000FFFF0F6A7D
(014.322961) can1 0CF00203#C00000FFF7000003
(014.323561) can1 0CF00C03#00FB0000FFFFFFFF
(014.327361) can1 18F00100#FFFFFFFFFFFFFFFF
(014.328601) can1 0CF00400#0E7D7D0000000F7D
(014.332882) can1 0CF00203#C00000FFF7000003
(014.337802) can1 18FEDF00#7DA0287D7DFFFFF0
(014.342362) can1 0CF00300#D10000FFFF0F6A7D
(014.342952) can1 0CF00203#C00000FFF7000003
(014.343521) can1 0CF00A00#00000000FFFFFFFF
(014.344120) can1 0CF00C03#00FB0000FFFFFFFF
(014.344713) can1 18FEF000#FFFFFFE015FFFFFF
(014.345242) can1 18F00503#7D00007D4E204E43
(014.345842) can1 18F00E00#FFFFFFFFFFFFFFFF
(014.346403) can1 18FE4A03#031F4FFFFFF3FFFF
(014.347402) can1 18F03300#FFFFFFFFFFFFFFFF
(014.348681) can1 0CF00400#0E7D7D0000000F7D
(014.349282) can1 0CF00331#FFFFFFFFFFFFFFFF
(014.352362) can1 18FCF200#FAFFFFFFFFFFFFFF
(014.352952) can1 0CF00203#C00000FFF7000003
(014.357788) can1 18FEDF00#7DA0287D7DFFFFF0
(014.358388) can1 18F00F00#FFFFFFFFFFFFFFFF
(014.362433) can1 0CF00300#D10000FFFF0F6A7D
(014.363002) can1 0C010305#FFFFFFFFFFF3FFFF
(014.363591) can1 0CF00203#C00000FFF7000003
(014.364152) can1 18FEF100#FF0000FCFF6800CF
(014.364722) can1 0CF00C03#00FB0000FFFFFFFF
(014.366241) can1 18F0010B#CFFFF0FFFFDCFFFF
(014.368627) can1 0CF00400#0E7D7D0000000F7D
(014.372363) can1 10FDA300#FFFF26FFFFFFFFFF
(014.372922) can1 0CF00203#C00000FFF7000003
(014.373481) can1 18F00029#F07D7DF329FFFF3C
(014.376281) can1 18FEBF0B#00007D7D7D7DFFFF
(014.377832) can1 18FEDF00#7DA0287D7DFFFFF0
(014.382401) can1 18FCDC00#9FFFFFFF9C680000
(014.382992) can1 0CF00203#C00000FFF7000003
(014.383552) can1 0CF00300#D10000FFFF0F6A7D
(014.384120) can1 0CF00C03#00FB0000FFFFFFFF
(014.384749) can1 1CFE9200#FF507DFFFFFF0000
(014.388603) can1 0CF00400#0E7D7D0000000F7D
(014.392362) can1 0CF00A00#00000000FFFFFFFF
(014.392922) can1 0CF00203#C00000FFF7000003
(014.393522) can1 18FD9400#0000FFFFFFFFFFFF
(014.394111) can1 18F00E00#FFFFFFFFFFFFFFFF
(014.397762) can1 18F03300#FFFFFFFFFFFFFFFF
(014.398353) can1 18FEDF00#7DA0287D7DFFFFF0
(014.399281) can1 18F00131#FFFFFF3F00FFFFFF
(014.399843) can1 18FEF131#F7FFFFC3CCFFFFF0
(014.400442) can1 18FEF031#FFFFFFFFFFFCCCFF
(014.401041) can1 18FF4831#0000FFFF00000000
(014.401641) can1 18FEF231#FFFFFFFFFFFFFFFF
(014.402241) can1 0CF00331#FFFFFFFFFFFFFFFF
(014.402801) can1 18FEE000#73490300BCE03300
(014.403361) can1 0CF00203#C00000FFF7000003
(014.403920) can1 0CF00300#D10000FFFF0F6A7D
(014.404523) can1 0CF00C03#00FB0000FFFFFFFF
(014.407403) can1 18FEF200#00000000AB08FAFF
(014.408002) can1 18F00F00#FFFFFFFFFFFFFFFF
(014.408711) can1 0CF00400#0E7D7D0000000F7D
(014.412841) can1 0C010305#FFFFFFFFFFF3FFFF
(014.413402) can1 0CF00203#C00000FFF7000003
(014.417761) can1 18FEDF00#7DA0287D7DFFFFF0
(014.418361) can1 10FCFD00#FFFFFFFF9051FFFF
(014.418921) can1 0CFD9200#F0FFFFFFFFFFFFFF
(014.422401) can1 0CF00300#D10000FFFF0F6A7D
(014.422961) can1 0CF00203#C00000FFF7000003
(014.423592) can1 0CF00C03#00FB0000FFFFFFFF
(014.427392) can1 18F00100#FFFFFFFFFFFFFFFF
(014.428632) can1 0CF00400#0E7D7D0000000F7D
(014.432882) can1 0CF00203#C00000FFF7000003
(014.437827) can1 18FEDF00#7DA0287D7DFFFFF0
(014.442392) can1 0CF00300#D10000FFFF0F6A7D
(014.442962) can1 0CF00203#C00000FFF7000003
(014.443552) can1 0CF00A00#00000000FFFFFFFF
(014.444121) can1 0CF00C03#00FB0000FFFFFFFF
(014.444713) can1 18FEF000#FFFFFFE015FFFFFF
(014.445272) can1 18F00503#7D00007D4E204E43
(014.445841) can1 18F00E00#FFFFFFFFFFFFFFFF
(014.446432) can1 18FE4A03#031F4FFFFFF3FFFF
(014.447432) can1 18F03300#FFFFFFFFFFFFFFFF
(014.448682) can1 0CF00400#0E7D7D0000000F7D
(014.449271) can1 0CF00331#FFFFFFFFFFFFFFFF
(014.452394) can1 18FCF200#FAFFFFFFFFFFFFFF
(014.452962) can1 0CF00203#C00000FFF7000003
(014.457803) can1 18FEDF00#7DA0287D7DFFFFF0
(014.458393) can1 18F00F00#FFFFFFFFFFFFFFFF
(014.462433) can1 18FD0700#430CFCFFFFFFFFFF
(014.463001) can1 0C010305#FFFFFFFFFFF3FFFF
(014.463593) can1 0CF00203#C00000FFF7000003
(014.464162) can1 0CF00300#D10000FFFF0F6A7D
(014.464747) can1 0CF00C03#00FB0000FFFFFFFF
(014.465311) can1 18FEF100#FF0000FCFF6800CF
(014.466441) can1 18F0010B#CFFFF0FFFFDCFFFF
(014.468642) can1 0CF00400#0E7D7D0000000F7D
(014.472363) can1 10FDA300#FFFF26FFFFFFFFFF
(014.472951) can1 0CF00203#C00000FFF7000003
(014.473511) can1 18F00029#F07D7DF329FFFF3C
(014.476482) can1 18FEBF0B#00007D7D7D7DFFFF
(014.477831) can1 18FEDF00#7DA0287D7DFFFFF0
(014.482401) can1 18FCDC00#9FFFFFFF9C680000
(014.482992) can1 0CF00203#C00000FFF7000003
(014.483553) can1 0CF00300#D10000FFFF0F6A7D
(014.484120) can1 0CF00C03#00FB0000FFFFFFFF
(014.484714) can1 1CFE9200#FF647DFFFFFF0000
(014.488642) can1 0CF00400#0E7D7D0000000F7D
(014.492352) can1 14FC9800#FF000000000000FF
(014.492922) can1 0CF00203#C00000FFF7000003
(014.493513) can1 0CF00A00#00000000FFFFFFFF
(014.494081) can1 18FD9400#0000FFFFFFFFFFFF
(014.494681) can1 18F00E00#FFFFFFFFFFFFFFFF
(014.497807) can1 18F03300#FFFFFFFFFFFFFFFF
(014.498368) can1 18FEDF00#7DA0287D7DFFFFF0
(014.499261) can1 18F00131#FFFFFF3F00FFFFFF
(014.499861) can1 18FEF131#F7FFFFC3CCFFFFF0
(014.500448) can1 18FEF031#FFFFFFFFFFFCCCFF
(014.501051) can1 18FF4831#0000FFFF00000000
(014.501651) can1 18FEF231#FFFFFFFFFFFFFFFF
(014.502251) can1 0CF00331#FFFFFFFFFFFFFFFF
(014.502810) can1 18FEE000#73490300BCE03300
(014.503381) can1 0CF00203#C00000FFF7000003
(014.503940) can1 0CF00300#D10000FFFF0F6A7D
(014.504523) can1 0CF00C03#00FB0000FFFFFFFF
(014.507402) can1 18FDB400#C3265925FFFFFFFF
(014.507992) can1 18FEF200#00000000AA08FAFF
(014.508591) can1 18F00F00#FFFFFFFFFFFFFFFF
(014.509161) can1 0CF00400#0E7D7D0000000F7D
(014.512841) can1 0C010305#FFFFFFFFFFF3FFFF
(014.513401) can1 0CF00203#C00000FFF7000003
(014.517791) can1 18FEDF00#7DA0287D7DFFFFF0
(014.518361) can1 10FCFD00#FFFFFFFF9C51FFFF
(014.522402) can1 0CF00300#D10000FFFF0F6A7D
(014.522990) can1 0CF00203#C00000FFF7000003
(014.523600) can1 0CF00C03#00FB0000FFFFFFFF
(014.527393) can1 18F00100#FFFFFFFFFFFFFFFF
(014.528642) can1 0CF00400#0E7D7D0000000F7D
(014.532362) can1 18FDB300#FFFF6924FFFFFFFF
(014.532922) can1 0CF00203#C00000FFF7000003
(014.537842) can1 18FEDF00#7DA0287D7DFFFFF0
(014.542401) can1 0CF00300#D10000FFFF0F6A7D
(014.542961) can1 0CF00203#C00000FFF7000003
(014.543561) can1 0CF00A00#00000000FFFFFFFF
(014.544150) can1 0CF00C03#00FB0000FFFFFFFF
(014.544748) can1 18FEF000#FFFFFFE015FFFFFF
(014.545281) can1 18F00503#7D00007D4E204E43
(014.545882) can1 18F00E00#FFFFFFFFFFFFFFFF
(014.546441) can1 18FE4A03#031F4FFFFFF3FFFF
(014.547441) can1 18F03300#FFFFFFFFFFFFFFFF
(014.548681) can1 0CF00400#0E7D7D0000000F7D
(014.549282) can1 0CF00331#FFFFFFFFFFFFFFFF
(014.552363) can1 18FDB200#FFFFFFFF0600FFFF
(014.552953) can1 0CF00203#C00000FFF7000003
(014.553522) can1 18FCF200#FAFFFFFFFFFFFFFF
(014.557803) can1 18FEDF00#7DA0287D7DFFFFF0
(014.558393) can1 18F00F00#FFFFFFFFFFFFFFFF
(014.562433) can1 0CF00300#D10000FFFF0F6A7D
(014.563003) can1 0C010305#FFFFFFFFFFF3FFFF
(014.563591) can1 0CF00203#C00000FFF7000003
(014.564153) can1 18FEF100#FF0000FCFF6800CF
(014.564722) can1 0CF00C03#00FB0000FFFFFFFF
(014.566642) can1 18F0010B#CFFFF0FFFFDCFFFF
(014.568641) can1 0CF00400#0E7D7D0000000F7D
(014.572403) can1 10FDA300#FFFF26FFFFFFFFFF
(014.572962) can1 0CF00203#C00000FFF7000003
(014.573521) can1 18F00029#F07D7DF329FFFF3C
(014.576679) can1 18FEBF0B#00007D7D7D7DFFFF
(014.577842) can1 18FD8C00#FFFF0000FFFFFFFF
(014.578401) can1 18FEDF00#7DA0287D7DFFFFF0
(014.582442) can1 18FCDC00#9FFFFFFF9C680000
(014.583001) can1 0CF00203#C00000FFF7000003
(014.583561) can1 0CF00300#D10000FFFF0F6A7D
(014.584162) can1 0CF00C03#00FB0000FFFFFFFF
(014.584754) can1 1CFE9200#FF507DFFFFFF0000
(014.588668) can1 0CF00400#0E7D7D0000000F7D
(014.592393) can1 0CF00A00#00000000FFFFFFFF
(014.592962) can1 0CF00203#C00000FFF7000003
(014.593554) can1 18FD9400#0000FFFFFFFFFFFF
(014.594151) can1 18F00E00#FFFFFFFFFFFFFFFF
(014.597792) can1 18FD2000#C326FFFFFFFFFFFF
(014.598391) can1 18F03300#FFFFFFFFFFFFFFFF
(014.598961) can1 18FEDF00#7DA0287D7DFFFFF0
(014.599522) can1 18F00131#FFFFFF3F00FFFFFF
(014.600113) can1 18E0FF31#FAFFFFFFFFF0FFFF
(014.600681) can1 18FEF131#F7FFFFC3CCFFFFF0
(014.601281) can1 18FEF031#FFFFFFFFFFFCCCFF
(014.601841) can1 18FEFC31#FF33FFFFFFFF00FF
(014.602441) can1 18FEAE31#FFFF0501FFFFFFFF
(014.603001) can1 0CF00203#C00000FFF7000003
(014.603561) can1 18FEE000#73490300BCE03300
(014.604121) can1 0CF00300#D10000FFFF0F6A7D
(014.604722) can1 0CF00C03#00FB0000FFFFFFFF
(014.605281) can1 18FEF731#FFFFFFFFED00FFFF
(014.605881) can1 18FF4831#0000FFFF00000000
(014.606483) can1 18FD8331#F8FFFFFFFFFFFFFF
(014.607082) can1 18FEF831#FFFFFFFFFFFFFFFF
(014.607672) can1 18FEF200#00000000AA08FAFF
(014.608242) can1 18F00F00#FFFFFFFFFFFFFFFF
(014.608842) can1 18FEF231#FFFFFFFFFFFFFFFF
(014.609402) can1 0CF00400#0E7D7D0000000F7D
(014.609993) can1 18FEFA31#FF0902FFFFFFFFFF
(014.610563) can1 18FEC131#5FF21005FFFFFFFF
(014.611162) can1 0CF00331#FFFFFFFFFFFFFFFF
(014.612831) can1 0C010305#FFFFFFFFFFF3FFFF
(014.613401) can1 0CF00203#C00000FFF7000003
(014.617802) can1 18FEDF00#7DA0287D7DFFFFF0
(014.618391) can1 10FCFD00#FFFFFFFFA651FFFF
(014.622401) can1 18FD3E00#4C24FF6924FFFFFF
(014.622992) can1 0CF00203#C00000FFF7000003
(014.623554) can1 0CF00300#D10000FFFF0F6A7D
(014.624121) can1 0CF00C03#00FB0000FFFFFFFF
(014.627402) can1 18F00100#FFFFFFFFFFFFFFFF
(014.628639) can1 0CF00400#0E7D7D0000000F7D
(014.632882) can1 0CF00203#C00000FFF7000003
(014.637841) can1 18FEDF00#7DA0287D7DFFFFF0
(014.642431) can1 18FD4000#FF3F00FFFFFFFFFF
(014.643002) can1 0CF00203#C00000FFF7000003
(014.643562) can1 0CF00300#D10000FFFF0F6A7D
(014.644123) can1 0CF00C03#00FB0000FFFFFFFF
(014.644723) can1 0CF00A00#00000000FFFFFFFF
(014.645282) can1 18F00503#7D00007D4E204E43
(014.645872) can1 18FEF000#FFFFFFE015FFFFFF
(014.646468) can1 18F00E00#FFFFFFFFFFFFFFFF
(014.647041) can1 18FE4A03#031F4FFFFFF3FFFF
(014.647603) can1 18F03300#FFFFFFFFFFFFFFFF
(014.648203) can1 18FD9503#CCFFFFBBFFFFFFFF
(014.648763) can1 0CF00400#0E7D7D0000000F7D
(014.649352) can1 0CF00331#FFFFFFFFFFFFFFFF
(014.649922) can1 18FEF803#FFFFFFFF1424FFFF
(014.652512) can1 18FCF200#FAFFFFFFFFFFFFFF
(014.653082) can1 0CF00203#C00000FFF7000003
(014.657829) can1 18FEDF00#7DA0287D7DFFFFF0
(014.658402) can1 18F00F00#FFFFFFFFFFFFFFFF
(014.662442) can1 0CF00300#D10000FFFF0F6A7D
(014.663033) can1 0C010305#FFFFFFFFFFF3FFFF
(014.663602) can1 0CF00203#C00000FFF7000003
(014.664161) can1 18FEF100#FF0000FCFF6800CF
(014.664754) can1 0CF00C03#00FB0000FFFFFFFF
(014.666872) can1 18F0010B#CFFFF0FFFFDCFFFF
(014.667441) can1 18FCC500#4C24FFFFFFFFFFFF
(014.668001) can1 0CFD9200#F0FFFFFFFFFFFFFF
(014.668682) can1 0CF00400#0E7D7D0000000F7D
(014.672432) can1 10FDA300#FFFF26FFFFFFFFFF
(014.673001) can1 0CF00203#C00000FFF7000003
(014.673561) can1 18F00029#F07D7DF329FFFF3C
(014.674121) can1 18FECA03#00FF00000000FFFF
(014.676911) can1 18FEBF0B#00007D7D7D7DFFFF
(014.677882) can1 18FEDF00#7DA0287D7DFFFFF0
(014.682441) can1 18FCDC00#9FFFFFFF9C680000
(014.683001) can1 0CF00203#C00000FFF7000003
(014.683561) can1 0CF00300#D10000FFFF0F6A7D
(014.684153) can1 0CF00C03#00FB0000FFFFFFFF
(014.684747) can1 1CFE9200#FF587DFFFFFF0000
(014.688672) can1 0CF00400#0E7D7D0000000F7D
(014.692403) can1 0CF00A00#00000000FFFFFFFF
(014.692962) can1 0CF00203#C00000FFF7000003
(014.693562) can1 18FD9400#0000FFFFFFFFFFFF
(014.694122) can1 18FEEF00#FFFFFF00FF7CFFFA
(014.694721) can1 18F00E00#FFFFFFFFFFFFFFFF
(014.697832) can1 18F03300#FFFFFFFFFFFFFFFF
(014.698402) can1 18FEDF00#7DA0287D7DFFFFF0
(014.699281) can1 18F00131#FFFFFF3F00FFFFFF
(014.699842) can1 18FEF131#F7FFFFC3CCFFFFF0
(014.700442) can1 18FEF031#FFFFFFFFFFFCCCFF
(014.701041) can1 18FF4831#0000FFFF00000000
(014.701641) can1 18FEF231#FFFFFFFFFFFFFFFF
(014.702241) can1 0CF00331#FFFFFFFFFFFFFFFF
(014.702800) can1 18FEE000#73490300BCE03300
(014.703361) can1 0CF00203#C00000FFF7000003
(014.703923) can1 0CF00300#D10000FFFF0F6A7D
(014.704522) can1 0CF00C03#00FB0000FFFFFFFF
(014.707468) can1 18FEF200#00000000AA08FAFF
(014.708073) can1 18F00F00#FFFFFFFFFFFFFFFF
(014.708722) can1 0CF00400#0E7D7D0000000F7D
(014.712403) can1 18FEDB00#FFFF6D00FFFFFFFF
(014.713002) can1 0C010305#FFFFFFFFFFF3FFFF
(014.713561) can1 0CF00203#C00000FFF7000003
(014.717801) can1 18FEDF00#7DA0287D7DFFFFF0
(014.718392) can1 10FCFD00#FFFFFFFFB651FFFF
(014.722441) can1 0CF00300#D10000FFFF0F6A7D
(014.723001) can1 0CF00203#C00000FFF7000003
(014.723632) can1 0CF00C03#00FB0000FFFFFFFF
(014.727402) can1 18F00100#FFFFFFFFFFFFFFFF
(014.728671) can1 0CF00400#0E7D7D0000000F7D
(014.732402) can1 18FEF600#FF0039FFFFFFFFFF
(014.732991) can1 0CF00203#C00000FFF7000003
(014.737873) can1 18FEDF00#7DA0287D7DFFFFF0
(014.742433) can1 0CF00300#D10000FFFF0F6A7D
(014.743001) can1 0CF00203#C00000FFF7000003
(014.743592) can1 0CF00A00#00000000FFFFFFFF
(014.744161) can1 0CF00C03#00FB0000FFFFFFFF
(014.744762) can1 18FEF000#FFFFFFE015FFFFFF
(014.745314) can1 18F00503#7D00007D4E204E43
(014.745912) can1 18F00E00#FFFFFFFFFFFFFFFF
(014.746481) can1 18FE4A03#031F4FFFFFF3FFFF
(014.747472) can1 18F03300#FFFFFFFFFFFFFFFF
(014.748722) can1 0CF00400#0E7D7D0000000F7D
(014.749282) can1 0CF00331#FFFFFFFFFFFFFFFF
(014.752432) can1 18FCF200#FAFFFFFFFFFFFFFF
(014.753002) can1 0CF00203#C00000FFF7000003
(014.757804) can1 18FEDF00#7DA0287D7DFFFFF0
(014.758403) can1 18FDC600#FD04FFFFFFFFFFFF
(014.758992) can1 18F00F00#FFFFFFFFFFFFFFFF
(014.762443) can1 0CF00300#D10000FFFF0F6A7D
(014.763034) can1 0C010305#FFFFFFFFFFF3FFFF
(014.763601) can1 0CF00203#C00000FFF7000003
(014.764161) can1 18FEF100#FF0000FCFF6800CF
(014.764761) can1 0CF00C03#00FB0000FFFFFFFF
(014.767082) can1 18F0010B#CFFFF0FFFFDCFFFF
(014.768643) can1 0CF00400#0E7D7D0000000F7D
(014.772443) can1 10FDA300#FFFF26FFFFFFFFFF
(014.773002) can1 0CF00203#C00000FFF7000003
(014.773562) can1 18F00029#F07D7DF329FFFF3C
(014.777111) can1 18FEBF0B#00007D7D7D7DFFFF
(014.777841) can1 18FEDF00#7DA0287D7DFFFFF0
(014.782481) can1 18FCDC00#9FFFFFFF9C680000
(014.783083) can1 0CF00203#C00000FFF7000003
(014.783632) can1 0CF00300#D10000FFFF0F6A7D
(014.784201) can1 0CF00C03#00FB0000FFFFFFFF
(014.784802) can1 1CFE9200#FF507DFFFFFF0000
(014.787122) can1 18FECA0B#00FF00000000FFFF
(014.788681) can1 0CF00400#0E7D7D0000000F7D
(014.792441) can1 0CF00A00#00000000FFFFFFFF
(014.793002) can1 0CF00203#C00000FFF7000003
(014.793601) can1 18FD9400#0000FFFFFFFFFFFF
(014.794191) can1 18F00E00#FFFFFFFFFFFFFFFF
(014.797832) can1 18F03300#FFFFFFFFFFFFFFFF
(014.798402) can1 18FEDF00#7DA0287D7DFFFFF0
(014.799281) can1 18F00131#FFFFFF3F00FFFFFF
(014.799871) can1 18FEF131#F7FFFFC3CCFFFFF0
(014.800472) can1 18FEF031#FFFFFFFFFFFCCCFF
(014.801043) can1 18FF4831#0000FFFF00000000
(014.801641) can1 18FEF231#FFFFFFFFFFFFFFFF
(014.802241) can1 0CF00331#FFFFFFFFFFFFFFFF
(014.802842) can1 18FEF700#FFFFFFFFDB00FFFF
(014.803402) can1 0CF00203#C00000FFF7000003
(014.803961) can1 18FEE000#73490300BCE03300
(014.804522) can1 0CF00C03#00FB0000FFFFFFFF
(014.805083) can1 0CF00300#D10000FFFF0F6A7D
(014.807442) can1 18FEF200#00000000AA08FAFF
(014.808041) can1 18F00F00#FFFFFFFFFFFFFFFF
(014.808722) can1 0CF00400#0E7D7D0000000F7D
(014.812843) can1 0C010305#FFFFFFFFFFF3FFFF
(014.813431) can1 0CF00203#C00000FFF7000003
(014.817832) can1 18FEDF00#7DA0287D7DFFFFF0
(014.818401) can1 10FCFD00#FFFFFFFFC351FFFF
(014.822442) can1 18FEC100#5FF210054F2C5200
(014.823002) can1 0CF00203#C00000FFF7000003
(014.823562) can1 0CF00300#D10000FFFF0F6A7D
(014.824152) can1 0CF00C03#00FB0000FFFFFFFF
(014.827434) can1 18F00100#FFFFFFFFFFFFFFFF
(014.828682) can1 0CF00400#0E7D7D0000000F7D
(014.832913) can1 0CF00203#C00000FFF7000003
(014.837881) can1 18FEDF00#7DA0287D7DFFFFF0
(014.842442) can1 0CF00300#D10000FFFF0F6A7D
(014.843033) can1 0CF00203#C00000FFF7000003
(014.843602) can1 0CF00A00#00000000FFFFFFFF
(014.844161) can1 0CF00C03#00FB0000FFFFFFFF
(014.844761) can1 18FEF000#FFFFFFE015FFFFFF
(014.845322) can1 18F00503#7D00007D4E204E43
(014.845913) can1 18F00E00#FFFFFFFFFFFFFFFF
(014.846481) can1 18FE4A03#031F4FFFFFF3FFFF
(014.847471) can1 18FE5600#9735FFFF1F1F00FF
(014.848041) can1 18F03300#FFFFFFFFFFFFFFFF
(014.848763) can1 0CF00400#0E7D7D0000000F7D
(014.849352) can1 0CF00331#FFFFFFFFFFFFFFFF
(014.852442) can1 18FCF200#FAFFFFFFFFFFFFFF
(014.853002) can1 0CF00203#C00000FFF7000003
(014.857854) can1 18FEDF00#7DA0287D7DFFFFF0
(014.858403) can1 18F00F00#FFFFFFFFFFFFFFFF
(014.862472) can1 0CF00300#D10000FFFF0F6A7D
(014.863043) can1 0C010305#FFFFFFFFFFF3FFFF
(014.863631) can1 0CF00203#C00000FFF7000003
(014.864202) can1 18FEF100#FF0000FCFF6800CF
(014.864762) can1 0CF00C03#00FB0000FFFFFFFF
(014.867272) can1 18F0010B#CFFFF0FFFFDCFFFF
(014.867839) can1 18FD7B00#00FFE67700008237
(014.868722) can1 0CF00400#0E7D7D0000000F7D
(014.872442) can1 10FDA300#FFFF26FFFFFFFFFF
(014.873033) can1 0CF00203#C00000FFF7000003
(014.873592) can1 18F00029#F07D7DF329FFFF3C
(014.877312) can1 18FEBF0B#00007D7D7D7DFFFF
(014.877878) can1 18FEDF00#7DA0287D7DFFFFF0
(014.882481) can1 18FCDC00#9FFFFFFF9C680000
(014.883073) can1 0CF00203#C00000FFF7000003
(014.883633) can1 0CF00300#D10000FFFF0F6A7D
(014.884201) can1 0CF00C03#00FB0000FFFFFFFF
(014.884792) can1 1CFE9200#FF587DFFFFFF0000
(014.888682) can1 0CF00400#0E7D7D0000000F7D
(014.892432) can1 0CF00A00#00000000FFFFFFFF
(014.893002) can1 0CF00203#C00000FFF7000003
(014.893562) can1 18FD9400#0000FFFFFFFFFFFF
(014.894161) can1 18FEDD00#FF0000FFFFFFFFFF
(014.894761) can1 18F00E00#FFFFFFFFFFFFFFFF
(014.897838) can1 18F03300#FFFFFFFFFFFFFFFF
(014.898401) can1 18FEDF00#7DA0287D7DFFFFF0
(014.899281) can1 18F00131#FFFFFF3F00FFFFFF
(014.899872) can1 18FEF131#F7FFFFC3CCFFFFF0
(014.900442) can1 18FEF031#FFFFFFFFFFFCCCFF
(014.901041) can1 18FF4831#0000FFFF00000000
(014.901642) can1 18FEF231#FFFFFFFFFFFFFFFF
(014.902241) can1 0CF00331#FFFFFFFFFFFFFFFF
(014.902803) can1 18FEE000#73490300BCE03300
(014.903361) can1 0CF00203#C00000FFF7000003
(014.903950) can1 0CF00300#D10000FFFF0F6A7D
(014.904521) can1 0CF00C03#00FB0000FFFFFFFF
(014.907442) can1 18FEF200#00000000AA08FAFF
(014.908041) can1 18F00F00#FFFFFFFFFFFFFFFF
(014.908721) can1 0CF00400#0E7D7D0000000F7D
(014.912442) can1 18FEE400#FF3FFCFD007FFFFF
(014.913033) can1 0C010305#FFFFFFFFFFF3FFFF
(014.913602) can1 0CF00203#C00000FFF7000003
(014.917841) can1 18FEDF00#7DA0287D7DFFFFF0
(014.918402) can1 10FCFD00#FFFFFFFFD351FFFF
(014.919001) can1 0CFD9200#F0FFFFFFFFFFFFFF
(014.922471) can1 0CF00300#D10000FFFF0F6A7D
(014.923042) can1 0CF00203#C00000FFF7000003
(014.923641) can1 0CF00C03#00FB0000FFFFFFFF
(014.927441) can1 18F00100#FFFFFFFFFFFFFFFF
(014.928682) can1 0CF00400#0E7D7D0000000F7D
(014.932882) can1 0CF00203#C00000FFF7000003
(014.937882) can1 18FEDF00#7DA0287D7DFFFFF0
(014.942441) can1 0CF00300#D10000FFFF0F6A7D
(014.943033) can1 0CF00203#C00000FFF7000003
(014.943601) can1 0CF00A00#00000000FFFFFFFF
(014.944201) can1 0CF00C03#00FB0000FFFFFFFF
(014.944795) can1 18FEF000#FFFFFFE015FFFFFF
(014.945323) can1 18F00503#7D00007D4E204E43
(014.945922) can1 18FEBD00#00F0FFFFFFFFFFFF
(014.946512) can1 18F00E00#FFFFFFFFFFFFFFFF
(014.947082) can1 18FE4A03#031F4FFFFFF3FFFF
(014.947672) can1 18F03300#FFFFFFFFFFFFFFFF
(014.948722) can1 0CF00400#0E7D7D0000000F7D
(014.949312) can1 0CF00331#FFFFFFFFFFFFFFFF
(014.949924) can1 18FECA31#00FF00000000FFFF
(014.952518) can1 18FCF200#FAFFFFFFFFFFFFFF
(014.953081) can1 0CF00203#C00000FFF7000003
(014.957868) can1 18FEDF00#7DA0287D7DFFFFF0
(014.958469) can1 18E0FF00#00FFFFFFFFFFFFFF
(014.959042) can1 18F00F00#FFFFFFFFFFFFFFFF
(014.962514) can1 0CF00300#D10000FFFF0F6A7D
(014.963082) can1 0C010305#FFFFFFFFFFF3FFFF
(014.963641) can1 0CF00203#C00000FFF7000003
(014.964232) can1 18FEF100#FF0000FCFF6800CF
(014.964801) can1 0CF00C03#00FB0000FFFFFFFF
(014.967472) can1 18FEEE00#37FFFFFFFFFFFFFF
(014.968001) can1 18F0010B#CFFFF0FFFFDCFFFF
(014.968721) can1 0CF00400#0E7D7D0000000F7D
(014.972472) can1 10FDA300#FFFF26FFFFFFFFFF
(014.973042) can1 0CF00203#C00000FFF7000003
(014.973601) can1 18F00029#F07D7DF329FFFF3C
(014.977513) can1 18FEBF0B#00007D7D7D7DFFFF
(014.978082) can1 18FEDF00#7DA0287D7DFFFFF0
(014.982519) can1 18FCDC00#9FFFFFFF9C680000
(014.983082) can1 0CF00203#C00000FFF7000003
(014.983642) can1 0CF00300#D10000FFFF0F6A7D
(014.984241) can1 0CF00C03#00FB0000FFFFFFFF
(014.984843) can1 1CFE9200#FF507DFFFFFF0000
(014.985401) can1 18FEF500#AAFFFF5025FFFFFF
(014.988721) can1 0CF00400#0E7D7D0000000F7D
(014.992433) can1 14FC9800#FF000000000000FF
(014.993001) can1 0CF00203#C00000FFF7000003
(014.993592) can1 0CF00A00#00000000FFFFFFFF
(014.994161) can1 18FD9400#0000FFFFFFFFFFFF
(014.994761) can1 18F00E00#FFFFFFFFFFFFFFFF
(014.997841) can1 18F03300#FFFFFFFFFFFFFFFF
(014.998441) can1 18FEDF00#7DA0287D7DFFFFF0
(014.999281) can1 18F00131#FFFFFF3F00FFFFFF
(014.999873) can1 18FEF131#F7FFFFC3CCFFFFF0
(015.000442) can1 18FEF031#FFFFFFFFFFFCCCFF
(015.001042) can1 18F11031#0000FFFFFFFFFFFF
(015.001662) can1 18FF4831#0000FFFF00000000
(015.002263) can1 18FEF231#FFFFFFFFFFFFFFFF
(015.002822) can1 18FEE000#73490300BCE03300
(015.003380) can1 0CF00203#C00000FFF7000003
(015.003940) can1 0CF00300#D10000FFFF0F6A7D
(015.004660) can1 0CF00331#FFFFFFFFFFFFFFFF
(015.005100) can1 0CF00C03#00FB0000FFFFFFFF
(015.005674) can1 18FEA400#FFFF1E24FFFF3B24
(015.007463) can1 18FDB400#C3265325FFFFFFFF
(015.008053) can1 18FEF200#00000000AB08FAFF
(015.008668) can1 18F00F00#FFFFFFFFFFFFFFFF
(015.009233) can1 0CF00400#0E7D7D0000000F7D
(015.012882) can1 0C010305#FFFFFFFFFFF3FFFF
(015.013454) can1 0CF00203#C00000FFF7000003
(015.017853) can1 18FEDF00#7DA0287D7DFFFFF0
(015.018423) can1 10FCFD00#FFFFFFFFDC51FFFF
(015.022463) can1 0CF00300#D10000FFFF0F6A7D
(015.023061) can1 0CF00203#C00000FFF7000003
(015.023661) can1 0CF00C03#00FB0000FFFFFFFF
(015.027452) can1 18FD7C00#F8830100C31F03FF
(015.028022) can1 18F00100#FFFFFFFFFFFFFFFF
(015.028753) can1 0CF00400#0E7D7D0000000F7D
(015.032435) can1 18FDB300#FFFF6924FFFFFFFF
(015.033002) can1 0CF00203#C00000FFF7000003
(015.037883) can1 18FEDF00#7DA0287D7DFFFFF0
(015.042472) can1 0CF00300#D10000FFFF0F6A7D
(015.043041) can1 0CF00203#C00000FFF7000003
